#  HZ   S   RI   R     50.00 
! Rohde & Schwarz Vector Network Analyzer 
! Rohde-Schwarz,ZNBT20-12Port,1332900224101045,3.12
! Created: UTC 12/16/2022, 2:38:46 AM
!The following Port Impedance Renormalization has been used when saving the data.
!PortZ  Port1:50+j0    Port4:50+j0
! freq[Hz]                re:S11                  im:S11                  re:S41                  im:S41                  re:S14                  im:S14                  re:S44                  im:S44
 1.000000000000000E8    -9.950227749681412E-1    4.325156138327244E-2   -7.322021205189826E-5    1.491290841718347E-5   -9.507747298945015E-5    2.574951466758025E-5    9.980991732112992E-1   -5.204388426301037E-2
 1.500000000000000E8    -9.932571619852379E-1    6.431195886807937E-2   -1.161297182386560E-4    1.037093809326245E-5   -1.746496592929195E-4    2.430971345027716E-5    9.959676846081815E-1   -7.797720126335998E-2
 2.000000000000000E8    -9.913265863927585E-1    8.490366378833186E-2   -2.400184739147275E-4    6.027739398744263E-5   -1.952222905926116E-4    7.093257496052741E-5    9.930888678077174E-1   -1.040494376042674E-1
 2.500000000000000E8    -9.881621436688356E-1    1.054404617212709E-1   -3.674844015794185E-4    8.431992376218499E-5   -3.453357242050526E-4    8.302465920436378E-5    9.900281300844909E-1   -1.294570718092709E-1
 3.000000000000000E8    -9.852425062067046E-1    1.259716816582540E-1   -5.154453273287514E-4    1.206041485540921E-4   -5.305664490728281E-4    9.907950709517189E-5    9.865450010523519E-1   -1.545551235546547E-1
 3.500000000000000E8    -9.816328986857780E-1    1.459488301754759E-1   -6.510096788429852E-4    1.611566889355668E-4   -6.737751885452663E-4    1.196096715496407E-4    9.815131389395312E-1   -1.802649787276349E-1
 4.000000000000000E8    -9.774063101448731E-1    1.662809017941748E-1   -8.719882081065712E-4    2.534881750289161E-4   -8.730982249419982E-4    2.368102745070778E-4    9.766184477445782E-1   -2.057625285917988E-1
 4.500000000000000E8    -9.733849095900978E-1    1.861733413016028E-1   -1.094642206042078E-3    3.001971148245252E-4   -1.086959658157843E-3    3.234065434386537E-4    9.705544663293816E-1   -2.309057825319892E-1
 5.000000000000000E8    -9.687064655283059E-1    2.059331560285727E-1   -1.330750068226769E-3    4.185566394299649E-4   -1.342049804720830E-3    4.254326165036049E-4    9.640501848573415E-1   -2.562977303270731E-1
 5.500000000000000E8    -9.636010347721393E-1    2.259086282384904E-1   -1.642280250079182E-3    5.606603583884470E-4   -1.597279905723618E-3    5.444859163969334E-4    9.568493542817768E-1   -2.808953119260429E-1
 6.000000000000000E8    -9.580762656014277E-1    2.457677598847632E-1   -1.921535371876710E-3    7.140048357022977E-4   -1.894197181838191E-3    6.930880159290060E-4    9.490389657714193E-1   -3.059901601373048E-1
 6.500000000000000E8    -9.520659620185145E-1    2.653157032707685E-1   -2.192418501747528E-3    8.503963796959959E-4   -2.217714422307393E-3    8.700601549190128E-4    9.402816468092020E-1   -3.306489929732828E-1
 7.000000000000000E8    -9.455191616569593E-1    2.847604706016701E-1   -2.506391547696943E-3    1.067025464690527E-3   -2.558225463594447E-3    1.029994958912168E-3    9.310000958477322E-1   -3.549981279250216E-1
 7.500000000000000E8    -9.386658021388972E-1    3.044112160872430E-1   -2.884641164679306E-3    1.280345916649581E-3   -2.886747630555932E-3    1.261304811210618E-3    9.212993817745065E-1   -3.795481521154198E-1
 8.000000000000000E8    -9.316412842652955E-1    3.237032874519707E-1   -3.239221075759507E-3    1.515654672544457E-3   -3.221702987797117E-3    1.525792129010127E-3    9.105483985154206E-1   -4.037287508812478E-1
 8.500000000000000E8    -9.239665361451948E-1    3.430137476776247E-1   -3.640090724601727E-3    1.797090731690641E-3   -3.621846474658812E-3    1.801361196806787E-3    8.991339902281336E-1   -4.275859556998984E-1
 9.000000000000000E8    -9.157949324846435E-1    3.620730055150368E-1   -4.019260386502453E-3    2.087315396007100E-3   -4.013506209303529E-3    2.092321205316904E-3    8.874318940724479E-1   -4.510604428232980E-1
 9.500000000000000E8    -9.074691140457424E-1    3.810781830313599E-1   -4.402792726910821E-3    2.469131555061591E-3   -4.401532183702635E-3    2.461855131261913E-3    8.742678963742727E-1   -4.745541219945059E-1
 1.000000000000000E9    -8.984016534198052E-1    4.005164523100865E-1   -4.845609272813862E-3    2.823049492454307E-3   -4.825635757945016E-3    2.817150310121635E-3    8.611058973480139E-1   -4.973845454168580E-1
 1.050000000000000E9    -8.889849611342895E-1    4.183826620799088E-1   -5.246798400641683E-3    3.257847937385508E-3   -5.268108134949631E-3    3.242194592335762E-3    8.469536541019479E-1   -5.203005283063856E-1
 1.100000000000000E9    -8.797461687731107E-1    4.372426850486841E-1   -5.714962622910541E-3    3.717104046165157E-3   -5.712075279159532E-3    3.712286099744739E-3    8.323033910926554E-1   -5.425933178436368E-1
 1.150000000000000E9    -8.691616460460737E-1    4.562537119741177E-1   -6.095672092941031E-3    4.287852872100385E-3   -6.164610966883100E-3    4.210044683528938E-3    8.166847099150575E-1   -5.650367754803113E-1
 1.200000000000000E9    -8.584493268712834E-1    4.752797719006687E-1   -6.582734822788754E-3    4.757295165737293E-3   -6.621174451402111E-3    4.754983451306381E-3    8.008099562780281E-1   -5.867618489901989E-1
 1.250000000000000E9    -8.471005189657965E-1    4.930993662615535E-1   -7.006929043008513E-3    5.390037101471716E-3   -7.043919740544874E-3    5.378642077469641E-3    7.841420312960169E-1   -6.081617201954093E-1
 1.300000000000000E9    -8.355088274379369E-1    5.117532581406498E-1   -7.476114541054539E-3    5.984210308305080E-3   -7.506394827071789E-3    5.967513633115506E-3    7.666468831468487E-1   -6.294175043419572E-1
 1.350000000000000E9    -8.230549654807179E-1    5.300928997766432E-1   -7.918817060182238E-3    6.693228663885358E-3   -7.942759104713834E-3    6.686560196918137E-3    7.480527695128043E-1   -6.500394399734706E-1
 1.400000000000000E9    -8.104691716067285E-1    5.479071513311429E-1   -8.352673497252062E-3    7.410152129213924E-3   -8.359140462331681E-3    7.376128920161534E-3    7.298281004383764E-1   -6.698688387394807E-1
 1.450000000000000E9    -7.971551574113931E-1    5.659917821323872E-1   -8.786661297432054E-3    8.190523633507946E-3   -8.768693004672989E-3    8.203648066790392E-3    7.100056890143205E-1   -6.896661919102151E-1
 1.500000000000000E9    -7.837189804377771E-1    5.834791117518747E-1   -9.232052810691558E-3    9.005557011871421E-3   -9.231443705580496E-3    9.012114711542733E-3    6.899534101344165E-1   -7.083839995934146E-1
 1.550000000000000E9    -7.693307003913241E-1    6.008382825467764E-1   -9.691477391653812E-3    9.930193070717720E-3   -9.622254752134065E-3    9.918557959993475E-3    6.684827866741873E-1   -7.272904989396204E-1
 1.600000000000000E9    -7.548673944696677E-1    6.184506664585433E-1   -1.001412800180091E-2    1.088740286419505E-2   -1.000081506446874E-2    1.087334134881651E-2    6.475562219110864E-1   -7.458697784129261E-1
 1.650000000000000E9    -7.392737795110067E-1    6.358010995438930E-1   -1.037010371296640E-2    1.192456518311466E-2   -1.042059870788756E-2    1.186838938721714E-2    6.251867562668413E-1   -7.636607975425420E-1
 1.700000000000000E9    -7.234608070071550E-1    6.530215361670512E-1   -1.070123319078773E-2    1.297279622053296E-2   -1.073682818821318E-2    1.295014105861567E-2    6.024178433358690E-1   -7.808718297942440E-1
 1.750000000000000E9    -7.066366389464652E-1    6.697630014891821E-1   -1.110270766114897E-2    1.412817933051134E-2   -1.101220869689013E-2    1.406805170808078E-2    5.789277415718309E-1   -7.970054756217042E-1
 1.800000000000000E9    -6.895456607926621E-1    6.861034799075955E-1   -1.135580640158343E-2    1.530875662335025E-2   -1.135665733830333E-2    1.527148975647522E-2    5.552340678180679E-1   -8.131497100987038E-1
 1.850000000000000E9    -6.707664678437154E-1    7.026361777855634E-1   -1.159598678639785E-2    1.655222454659701E-2   -1.157347990682932E-2    1.652724685308674E-2    5.304749089588039E-1   -8.288469535015942E-1
 1.900000000000000E9    -6.522202015228196E-1    7.190948527461661E-1   -1.177242956888333E-2    1.787729214057199E-2   -1.175539788411019E-2    1.783195910218838E-2    5.047349582352311E-1   -8.434136738452528E-1
 1.950000000000000E9    -6.329942811183563E-1    7.352684598952856E-1   -1.190893587996740E-2    1.922835137403951E-2   -1.192554742411572E-2    1.926256915088936E-2    4.787107045869998E-1   -8.575232285526976E-1
 2.000000000000000E9    -6.132420527774223E-1    7.510145423374163E-1   -1.198551256588551E-2    2.072233369745074E-2   -1.200676079390030E-2    2.069810513124833E-2    4.521668387543946E-1   -8.705447643330911E-1
 2.050000000000000E9    -5.921917274830936E-1    7.661099561378991E-1   -1.198914676022468E-2    2.229614441111711E-2   -1.204805581346648E-2    2.219937986183078E-2    4.248531409986869E-1   -8.829282697154108E-1
 2.100000000000000E9    -5.710244683998094E-1    7.812079941306375E-1   -1.203528033621594E-2    2.379426252372856E-2   -1.207518373217075E-2    2.373777523642408E-2    3.974167640006161E-1   -8.947627100370270E-1
 2.150000000000000E9    -5.490763695011512E-1    7.956462481696359E-1   -1.193207622417978E-2    2.544121756169995E-2   -1.195812570653996E-2    2.541763939390059E-2    3.685805738555396E-1   -9.053127778905998E-1
 2.200000000000000E9    -5.258978417658028E-1    8.101720130789570E-1   -1.168233229302516E-2    2.720178846588998E-2   -1.177141897843973E-2    2.714869420639655E-2    3.397530164401476E-1   -9.146978928463285E-1
 2.250000000000000E9    -5.019047852935644E-1    8.240811229203955E-1   -1.145244623892403E-2    2.891889933069242E-2   -1.150873903444764E-2    2.888906227365181E-2    3.107356401429556E-1   -9.249347080194542E-1
 2.300000000000000E9    -4.774119689296646E-1    8.372937875294580E-1   -1.113351859483256E-2    3.080608907911509E-2   -1.116204582257799E-2    3.072576708819585E-2    2.795688343113926E-1   -9.325462968274473E-1
 2.350000000000000E9    -4.512754320580035E-1    8.505803806392466E-1   -1.068666577404323E-2    3.292827009378794E-2   -1.062958027009987E-2    3.266857573936462E-2    2.490505318146506E-1   -9.401874809273190E-1
 2.400000000000000E9    -4.239238478371570E-1    8.630523300833302E-1   -1.010029719201124E-2    3.475808033146709E-2   -1.009968710635353E-2    3.467752243742943E-2    2.192692209431380E-1   -9.468593545993980E-1
 2.450000000000000E9    -3.958025465437827E-1    8.745987659359844E-1   -9.413570604670310E-3    3.684036285137903E-2   -9.394597999493569E-3    3.671193285029281E-2    1.866446053298339E-1   -9.531537825687859E-1
 2.500000000000000E9    -3.669462256651555E-1    8.857223650361609E-1   -8.348972160068385E-3    3.890180283012987E-2   -8.501174623517561E-3    3.876406233302378E-2    1.530185629742148E-1   -9.576519341744008E-1
 2.550000000000000E9    -3.361014985915127E-1    8.961480112254188E-1   -7.358382951899331E-3    4.093156017573122E-2   -7.620917659541606E-3    4.089376369571451E-2    1.209008139336785E-1   -9.626180259997857E-1
 2.600000000000000E9    -3.047222893350238E-1    9.057912525862089E-1   -6.383079428930579E-3    4.310021917354662E-2   -6.355138638849451E-3    4.317055790646718E-2    8.577517536897755E-2   -9.632694076353167E-1
 2.650000000000000E9    -2.708120555500871E-1    9.143797097693797E-1   -5.145874164423549E-3    4.532708722980635E-2   -5.115170502412085E-3    4.563607257298177E-2    5.306108953003562E-2   -9.638378400808327E-1
 2.700000000000000E9    -2.373468049923391E-1    9.210411758095010E-1   -3.423777800345803E-3    4.747004176160176E-2   -3.419556216538410E-3    4.759778543120080E-2    1.896754361876599E-2   -9.619202031490620E-1
 2.750000000000000E9    -2.017741236037997E-1    9.276140910861775E-1   -2.019890871687084E-3    4.962084046263828E-2   -1.815198838823776E-3    4.988948319608972E-2   -1.536731774555871E-2   -9.607492197825575E-1
 2.800000000000000E9    -1.648695115585428E-1    9.320302230928614E-1    5.444915398745368E-5    5.194197361854092E-2    3.044690551305229E-5    5.206010673265799E-2   -5.049558796643437E-2   -9.571274822830393E-1
 2.850000000000000E9    -1.266844967781979E-1    9.354362034513627E-1    2.291660448914958E-3    5.432022815826874E-2    2.328302988378544E-3    5.421788811545562E-2   -8.438133560033384E-2   -9.528918534083689E-1
 2.900000000000000E9    -8.743189068338038E-2    9.373804817336006E-1    4.583436989849709E-3    5.647348411880541E-2    4.411810446104565E-3    5.644973359494272E-2   -1.199000400628159E-1   -9.461136443785817E-1
 2.950000000000000E9    -4.718853498786349E-2    9.370260572071863E-1    7.009421198232788E-3    5.859813840519563E-2    6.944863948191592E-3    5.847692961225456E-2   -1.547245087143894E-1   -9.377482965012814E-1
 3.000000000000000E9    -4.283426536979446E-3    9.350280591128687E-1    9.812353871435690E-3    6.064984264941934E-2    9.789581342563674E-3    6.069873666734434E-2   -1.902462451721838E-1   -9.299325818210348E-1
 3.050000000000000E9     3.934456775116971E-2    9.304971023714779E-1    1.294013346845397E-2    6.278033397995261E-2    1.304729804132876E-2    6.274493686373753E-2   -2.242208876054716E-1   -9.198445453314349E-1
 3.100000000000000E9     8.549758236504931E-2    9.241346530620349E-1    1.656323903922895E-2    6.473830056563609E-2    1.650961371476669E-2    6.485953441409498E-2   -2.591167757157400E-1   -9.096215304689985E-1
 3.150000000000000E9     1.342239399027791E-1    9.138064068222467E-1    2.019918997103271E-2    6.659952178089366E-2    2.026418245024562E-2    6.648576387351837E-2   -2.954722294987218E-1   -8.959476163996259E-1
 3.200000000000000E9     1.833363400941834E-1    9.008061499058473E-1    2.435120276928170E-2    6.807997174590183E-2    2.452698998581178E-2    6.827221959771286E-2   -3.288831494278160E-1   -8.798868271871209E-1
 3.250000000000000E9     2.357145502426676E-1    8.834903860619634E-1    2.904136930615531E-2    6.962284006166275E-2    2.919251471626991E-2    6.964682200973143E-2   -3.643706961617400E-1   -8.653201003084113E-1
 3.300000000000000E9     2.901465125808511E-1    8.618982779027083E-1    3.424471559391102E-2    7.076279402377798E-2    3.415522924437020E-2    7.078936614843549E-2   -3.983976138371574E-1   -8.473999078344991E-1
 3.350000000000000E9     3.444217726734676E-1    8.338897148849803E-1    3.939278095527222E-2    7.113375510910672E-2    3.939982845841314E-2    7.114372828480153E-2   -4.342291398572726E-1   -8.281462245687340E-1
 3.400000000000000E9     4.014874318469651E-1    8.016302205634419E-1    4.533170839916197E-2    7.157689189083775E-2    4.511327308360202E-2    7.160278158703216E-2   -4.679314499163957E-1   -8.057256542532222E-1
 3.450000000000000E9     4.593444068774413E-1    7.604428830516845E-1    5.132730563764100E-2    7.085862105426992E-2    5.131266256789550E-2    7.081191573580434E-2   -5.014762086172546E-1   -7.834447614709887E-1
 3.500000000000000E9     5.159304504360899E-1    7.094446789579273E-1    5.772744862109615E-2    6.995605133752419E-2    5.767585106938691E-2    6.982919635617177E-2   -5.370997533368368E-1   -7.580393622790610E-1
 3.550000000000000E9     5.702142233202272E-1    6.514872394186938E-1    6.404202045604585E-2    6.785722349168208E-2    6.416461974726088E-2    6.800499893917429E-2   -5.705585881906856E-1   -7.294274568635067E-1
 3.600000000000000E9     6.216306036018564E-1    5.831302685782455E-1    7.061105289349968E-2    6.432721007347751E-2    7.070264848917462E-2    6.404295698053521E-2   -5.985132637472184E-1   -6.974294897413041E-1
 3.650000000000000E9     6.732684207432870E-1    5.010391350471233E-1    7.784901836782089E-2    6.109646373968963E-2    7.776572977753342E-2    6.128534360831151E-2   -6.334985222516513E-1   -6.679092879337009E-1
 3.700000000000000E9     7.095440350691616E-1    4.048200812116157E-1    8.448454016897410E-2    5.569106169245631E-2    8.443374038238202E-2    5.564158517262584E-2   -6.664372362164244E-1   -6.320210948219553E-1
 3.750000000000000E9     7.375471757353024E-1    3.079052563551676E-1    9.043126599050022E-2    5.022583973528208E-2    9.036479649264113E-2    5.034589195310148E-2   -6.901781317802389E-1   -5.930923141383624E-1
 3.800000000000000E9     7.562467440346936E-1    1.893835603735769E-1    9.661959607130247E-2    4.180222422546770E-2    9.652443904460502E-2    4.183746192818095E-2   -7.200883666273532E-1   -5.583447666480210E-1
 3.850000000000000E9     7.543910178791529E-1    6.549974423582221E-2    1.008414546521686E-1    3.268584562420918E-2    1.008961922546103E-1    3.241582196418005E-2   -7.467494518584897E-1   -5.149075574111983E-1
 3.900000000000000E9     7.328293888618270E-1   -7.311480767648564E-2    1.039217603401817E-1    2.209589478340328E-2    1.037006276316651E-1    2.246346906560951E-2   -7.680734669014510E-1   -4.696938842632331E-1
 3.950000000000000E9     6.807378472140168E-1   -2.182725874293452E-1    1.053990786265429E-1    1.060690408918867E-2    1.055990271031847E-1    1.074730220101240E-2   -7.881888905761999E-1   -4.284505344811516E-1
 4.000000000000000E9     5.941493199745764E-1   -3.546769839717477E-1    1.042775748033620E-1   -2.444942993955316E-3    1.041702499877550E-1   -2.253762825693206E-3   -8.094424556460165E-1   -3.829485725333681E-1
 4.050000000000000E9     4.715060831728524E-1   -4.804072094241241E-1    9.967052788546038E-2   -1.489916715240473E-2    9.974084621314601E-2   -1.484955240020074E-2   -8.293566927750607E-1   -3.326411650130195E-1
 4.100000000000000E9     3.144171484435444E-1   -5.815288769667081E-1    9.232949060854466E-2   -2.655090467718974E-2    9.225685176215953E-2   -2.639768730835070E-2   -8.435480887407776E-1   -2.798150363098176E-1
 4.150000000000000E9     1.251628795625680E-1   -6.482748219440839E-1    8.086696594089461E-2   -3.717277814183954E-2    8.096657459339851E-2   -3.712450596566216E-2   -8.569803652537136E-1   -2.271549366222923E-1
 4.200000000000000E9    -8.635022297911761E-2   -6.495090849858881E-1    6.607493331180177E-2   -4.237856211848387E-2    6.615777454165250E-2   -4.231035901368910E-2   -8.709585315620095E-1   -1.675053220209397E-1
 4.250000000000000E9    -2.729958002601126E-1   -6.068143151307037E-1    5.298961416080156E-2   -4.337483954996060E-2    5.292037406317141E-2   -4.333208946726614E-2   -8.735542551561769E-1   -1.057509171415676E-1
 4.300000000000000E9    -4.552752610213642E-1   -5.167653992614208E-1    3.925713538588909E-2   -4.190011593946905E-2    3.939712449606213E-2   -4.185182248710542E-2   -8.753182070984245E-1   -4.509403554289995E-2
 4.350000000000000E9    -5.986391296710298E-1   -3.879258956222839E-1    2.756333763067164E-2   -3.594641986401580E-2    2.754709647275633E-2   -3.566408595373130E-2   -8.716252603447449E-1    2.362673654557926E-2
 4.400000000000000E9    -7.097120115906024E-1   -2.299949384204845E-1    1.846278480512171E-2   -2.838271551809912E-2    1.850811267805151E-2   -2.834669638229854E-2   -8.655865566442555E-1    8.636995483205090E-2
 4.405000000000000E9    -7.191350767920799E-1   -2.125262866759732E-1    1.774568052390654E-2   -2.752592988631306E-2    1.769046527185749E-2   -2.764795155228549E-2   -8.647569984092720E-1    9.256729059686782E-2
 4.410000000000000E9    -7.267786161244419E-1   -1.950710472190624E-1    1.696629878266377E-2   -2.700349235859986E-2    1.665098270701884E-2   -2.689259358555854E-2   -8.643619209277350E-1    9.998696153166521E-2
 4.415000000000000E9    -7.351871926336174E-1   -1.793413661208669E-1    1.596741397143871E-2   -2.596130320537515E-2    1.598263322266289E-2   -2.589996600519824E-2   -8.634697261000833E-1    1.073048014609362E-1
 4.420000000000000E9    -7.446337269690660E-1   -1.606189830134045E-1    1.505024633425588E-2   -2.494186560038082E-2    1.505610640028393E-2   -2.469637824310688E-2   -8.624763823166547E-1    1.148878942758819E-1
