#  HZ   S   RI   R     50.00 
! Rohde & Schwarz Vector Network Analyzer 
! Rohde-Schwarz,ZNB20-4Port,1311601064102434,3.45
! Created: UTC 12/23/2022, 1:51:03 PM
! freq[Hz]                re:S11                  im:S11                  re:S21                  im:S21                  re:S12                  im:S12                  re:S22                  im:S22
 2.000000000000000E9    -5.638817334016282E-1    8.017577853121084E-1   -1.040190052231125E-2   -3.780416872198958E-3   -1.042901208032526E-2   -3.823753282243748E-3   -1.665396495961983E-1    9.479968295923353E-1
 2.001000000000000E9    -5.637664228569105E-1    8.024441876514135E-1   -1.046727044730181E-2   -3.685988070270225E-3   -1.046612415308334E-2   -3.720588655531887E-3   -1.646940413752889E-1    9.490456445805248E-1
 2.002000000000000E9    -5.615419474559082E-1    8.026316088079143E-1   -1.037685162038902E-2   -3.729113433404785E-3   -1.035024442325628E-2   -3.769805466431187E-3   -1.640756934765090E-1    9.463075904936886E-1
 2.003000000000000E9    -5.610224636289610E-1    8.057748631577311E-1   -1.043002899254800E-2   -3.847650215945890E-3   -1.046668973261843E-2   -3.784929176338696E-3   -1.641471611665910E-1    9.481570432765409E-1
 2.004000000000000E9    -5.611454555343327E-1    8.043252093565150E-1   -1.054795190746266E-2   -3.730445789386756E-3   -1.056513735571455E-2   -3.721785381340943E-3   -1.624570909914448E-1    9.482565504136933E-1
 2.005000000000000E9    -5.582912721561822E-1    8.059526766162118E-1   -1.050378427151193E-2   -3.615794578648047E-3   -1.052771821285167E-2   -3.751998491028412E-3   -1.615271099285847E-1    9.479992270072597E-1
 2.006000000000000E9    -5.580588078983736E-1    8.040359435246835E-1   -1.064896065551594E-2   -3.613840829732451E-3   -1.053935344871364E-2   -3.812676511701550E-3   -1.606669601472584E-1    9.488656360127552E-1
 2.007000000000000E9    -5.598618483062089E-1    8.058683277099347E-1   -1.055583962840515E-2   -3.760468694905606E-3   -1.064863453795729E-2   -3.880129762619069E-3   -1.608758833017943E-1    9.507100121004882E-1
 2.008000000000000E9    -5.563361831218373E-1    8.056121202094686E-1   -1.065605057406545E-2   -3.745584762562244E-3   -1.065451981899126E-2   -3.776541715878559E-3   -1.601516024123954E-1    9.495322855028357E-1
 2.009000000000000E9    -5.571360476408108E-1    8.041943032456508E-1   -1.054040488376111E-2   -3.691211575314813E-3   -1.063947622583490E-2   -3.786662941217376E-3   -1.560611247742766E-1    9.484838387469035E-1
 2.010000000000000E9    -5.547729269836880E-1    8.063200749559958E-1   -1.056532668850280E-2   -3.673836581855777E-3   -1.065580370648241E-2   -3.763694707216101E-3   -1.573060537750094E-1    9.486638398940012E-1
 2.011000000000000E9    -5.552772030404005E-1    8.053972599473941E-1   -1.061522995272234E-2   -3.724756491038203E-3   -1.064061498044723E-2   -3.659805636028035E-3   -1.540494617230237E-1    9.500292062134410E-1
 2.012000000000000E9    -5.543385341287600E-1    8.067251090429127E-1   -1.064996623318821E-2   -3.664785613383408E-3   -1.071896211729026E-2   -3.686244334491564E-3   -1.548547815882723E-1    9.492698061213060E-1
 2.013000000000000E9    -5.554236952171382E-1    8.097418901825707E-1   -1.070805263933775E-2   -3.688970687658318E-3   -1.067689493032378E-2   -3.618405705161081E-3   -1.517838980812329E-1    9.496373850173350E-1
 2.014000000000000E9    -5.523053656787412E-1    8.090265029399154E-1   -1.070643312663289E-2   -3.590276069863512E-3   -1.075899943239709E-2   -3.714049079503772E-3   -1.507982225534608E-1    9.503649780722799E-1
 2.015000000000000E9    -5.521130493783726E-1    8.066086128323097E-1   -1.067692978531817E-2   -3.596543832562935E-3   -1.077762717936244E-2   -3.740859822032118E-3   -1.499496731575855E-1    9.486422714996583E-1
 2.016000000000000E9    -5.517601582690735E-1    8.065763750520185E-1   -1.073652106240219E-2   -3.679763437266882E-3   -1.080672434817195E-2   -3.708274242128867E-3   -1.485956031163263E-1    9.535907698891063E-1
 2.017000000000000E9    -5.478083747848005E-1    8.073002012890426E-1   -1.070421267932718E-2   -3.656752208956947E-3   -1.072432408636045E-2   -3.641869044925580E-3   -1.470724946313673E-1    9.482530269180519E-1
 2.018000000000000E9    -5.508529015044002E-1    8.100388498850605E-1   -1.070720749415976E-2   -3.645423320945275E-3   -1.076873294053371E-2   -3.696494256089680E-3   -1.465367439864583E-1    9.515997853355462E-1
 2.019000000000000E9    -5.513997909616644E-1    8.113322336290141E-1   -1.079191549310910E-2   -3.743439705016026E-3   -1.082318575891327E-2   -3.652273771225307E-3   -1.450312264029193E-1    9.507565889218003E-1
 2.020000000000000E9    -5.513373572939931E-1    8.113008945958387E-1   -1.091096529516990E-2   -3.706613953617590E-3   -1.093070469784866E-2   -3.594352941998993E-3   -1.469458340315207E-1    9.499810853738816E-1
 2.021000000000000E9    -5.481264744810111E-1    8.100975192783225E-1   -1.080310553132670E-2   -3.606499061239526E-3   -1.083135747557716E-2   -3.773285776086476E-3   -1.446021000105799E-1    9.526350784754587E-1
 2.022000000000000E9    -5.477631840249954E-1    8.127343761913296E-1   -1.081538833809152E-2   -3.624882146073856E-3   -1.082447584081106E-2   -3.664705544927852E-3   -1.418301793830638E-1    9.512797132205529E-1
 2.023000000000000E9    -5.485544688313022E-1    8.105839813000254E-1   -1.086129329784185E-2   -3.647278687389807E-3   -1.093746817495947E-2   -3.726587197029782E-3   -1.399597678727851E-1    9.515730847034890E-1
 2.024000000000000E9    -5.469564638248806E-1    8.087622621104787E-1   -1.095948182679985E-2   -3.691452307727178E-3   -1.087155419271471E-2   -3.653093413551744E-3   -1.395216619889281E-1    9.520050105479128E-1
 2.025000000000000E9    -5.446675155389388E-1    8.138799192953906E-1   -1.092124851188835E-2   -3.617098298975981E-3   -1.089544543157780E-2   -3.602171547689739E-3   -1.393364109336533E-1    9.536443513127348E-1
 2.026000000000000E9    -5.464975435193791E-1    8.110503174680883E-1   -1.095324900740685E-2   -3.669633243188918E-3   -1.098131718416584E-2   -3.637236777262579E-3   -1.377404998391618E-1    9.524616386200737E-1
 2.027000000000000E9    -5.450730836914893E-1    8.107952926816561E-1   -1.102552580504637E-2   -3.601844710109514E-3   -1.098738090871878E-2   -3.683876771706042E-3   -1.351045077154812E-1    9.530224820079207E-1
 2.028000000000000E9    -5.467933844297616E-1    8.135590173205942E-1   -1.102720719182210E-2   -3.664137503312940E-3   -1.098040068383601E-2   -3.694721843508558E-3   -1.357904481006567E-1    9.514225278632024E-1
 2.029000000000000E9    -5.460459302707230E-1    8.148396982938167E-1   -1.100046985372176E-2   -3.651990227558869E-3   -1.110587348218560E-2   -3.662279797306095E-3   -1.359961897514192E-1    9.520692149658803E-1
 2.030000000000000E9    -5.478007713710795E-1    8.144065295143900E-1   -1.111414002455051E-2   -3.660154646224004E-3   -1.118321115187168E-2   -3.645781349624007E-3   -1.345015841708901E-1    9.534825788439555E-1
 2.031000000000000E9    -5.450762231056229E-1    8.150424218712781E-1   -1.102501222896997E-2   -3.646785268704670E-3   -1.121110192424985E-2   -3.634287423521638E-3   -1.337755381854173E-1    9.531134499450624E-1
 2.032000000000000E9    -5.436852759973334E-1    8.153958855846454E-1   -1.111628226317011E-2   -3.613375674884384E-3   -1.107427009754552E-2   -3.640882249989473E-3   -1.305026411184999E-1    9.531352421422956E-1
 2.033000000000000E9    -5.410981281998868E-1    8.147727158753005E-1   -1.104764607377761E-2   -3.643160506289286E-3   -1.115511138332287E-2   -3.642196897561354E-3   -1.317939984095332E-1    9.535249949614150E-1
 2.034000000000000E9    -5.402409807717971E-1    8.164596638109700E-1   -1.110838928885517E-2   -3.617425126511246E-3   -1.105828609744703E-2   -3.662106129693537E-3   -1.292623158441474E-1    9.517547551935550E-1
 2.035000000000000E9    -5.408468859052575E-1    8.160909306061641E-1   -1.113445516319583E-2   -3.733361022446217E-3   -1.123480688029982E-2   -3.620186147073282E-3   -1.307265024709271E-1    9.564555397537089E-1
 2.036000000000000E9    -5.384314929830202E-1    8.173612462108546E-1   -1.124022629563976E-2   -3.506586148728621E-3   -1.114310971340829E-2   -3.603221525730900E-3   -1.272021549340685E-1    9.539968824915247E-1
 2.037000000000000E9    -5.395728839456796E-1    8.174637565844813E-1   -1.116332684102835E-2   -3.590397539163654E-3   -1.122102361062586E-2   -3.674168905045332E-3   -1.281363622878361E-1    9.540983849911731E-1
 2.038000000000000E9    -5.401069767280792E-1    8.151836488185145E-1   -1.128463549692891E-2   -3.669380382908503E-3   -1.124734317465100E-2   -3.716814625090594E-3   -1.271781171345523E-1    9.538530982757898E-1
 2.039000000000000E9    -5.386715398355586E-1    8.166969140969074E-1   -1.123165463132290E-2   -3.634445459564397E-3   -1.135669996382030E-2   -3.721781025389430E-3   -1.251908508892332E-1    9.549525309068359E-1
 2.040000000000000E9    -5.392725558012215E-1    8.181625800563332E-1   -1.127772152333719E-2   -3.624090465775192E-3   -1.129212502868202E-2   -3.573619642519110E-3   -1.239054094489776E-1    9.559769858365685E-1
 2.041000000000000E9    -5.397007577806942E-1    8.180998290732471E-1   -1.123183520580935E-2   -3.604287413233409E-3   -1.133107949436534E-2   -3.656080185460535E-3   -1.238575411492392E-1    9.551439532979403E-1
 2.042000000000000E9    -5.379846394089224E-1    8.179243689693972E-1   -1.126955561224723E-2   -3.649950366664111E-3   -1.128329488845622E-2   -3.626466262972709E-3   -1.219988248334289E-1    9.565980142137930E-1
 2.043000000000000E9    -5.399746312652908E-1    8.196747909988508E-1   -1.132947619075052E-2   -3.653707079999327E-3   -1.135386948415924E-2   -3.628344725044386E-3   -1.209078101323829E-1    9.547795543860782E-1
 2.044000000000000E9    -5.346726382112333E-1    8.184898557719034E-1   -1.137012769546531E-2   -3.517010098132400E-3   -1.132683882782365E-2   -3.614068182930288E-3   -1.200292408784245E-1    9.540676225740490E-1
 2.045000000000000E9    -5.347680617172801E-1    8.181788724094400E-1   -1.136772862864890E-2   -3.640709906880524E-3   -1.135369632895727E-2   -3.568589451856016E-3   -1.194882587149959E-1    9.548605142644901E-1
 2.046000000000000E9    -5.362612289761872E-1    8.184475977929829E-1   -1.142444705069102E-2   -3.549631353418610E-3   -1.150161270432299E-2   -3.596901097424855E-3   -1.194482224700113E-1    9.565266749839779E-1
 2.047000000000000E9    -5.371296363202021E-1    8.217889329903342E-1   -1.147063049549258E-2   -3.576930190604745E-3   -1.151581341755657E-2   -3.577671604444043E-3   -1.159741681350934E-1    9.562427906085110E-1
 2.048000000000000E9    -5.383065342243647E-1    8.221777492281876E-1   -1.151107454030926E-2   -3.512930387191665E-3   -1.140316609527623E-2   -3.658708108397291E-3   -1.157789682886305E-1    9.536871240847493E-1
 2.049000000000000E9    -5.358809843934994E-1    8.200199095549413E-1   -1.146600972043055E-2   -3.612102349488222E-3   -1.145654741287428E-2   -3.620611929698098E-3   -1.154935101188947E-1    9.550574210775591E-1
 2.050000000000000E9    -5.353506008942609E-1    8.206343521004301E-1   -1.154131278620945E-2   -3.599779002079908E-3   -1.152702288491625E-2   -3.547010374566376E-3   -1.148203509252525E-1    9.555096944934216E-1
 2.051000000000000E9    -5.313007608534890E-1    8.206741012929921E-1   -1.149600836489009E-2   -3.530221006362537E-3   -1.152768661635707E-2   -3.481480136488586E-3   -1.136189916481866E-1    9.548230481562846E-1
 2.052000000000000E9    -5.349543944031304E-1    8.219005610309381E-1   -1.148427947025336E-2   -3.598620538347267E-3   -1.150211612548320E-2   -3.594879136589430E-3   -1.107820936833900E-1    9.558121019339134E-1
 2.053000000000000E9    -5.347170874828038E-1    8.213771640488490E-1   -1.155373142872509E-2   -3.594928661034320E-3   -1.153837800162754E-2   -3.588440146971013E-3   -1.115720024346191E-1    9.554702299047458E-1
 2.054000000000000E9    -5.322844937219929E-1    8.206462186599559E-1   -1.146227595059007E-2   -3.535130808090457E-3   -1.147421698209855E-2   -3.570330555277195E-3   -1.079801555352429E-1    9.567695603325201E-1
 2.055000000000000E9    -5.327482479397768E-1    8.243019297565759E-1   -1.164633571473252E-2   -3.406393424245366E-3   -1.156653493739890E-2   -3.537233340426667E-3   -1.098505848870890E-1    9.561572861774896E-1
 2.056000000000000E9    -5.306695410007518E-1    8.217200931903351E-1   -1.152186473103147E-2   -3.484990651999611E-3   -1.161176976448981E-2   -3.612126594349418E-3   -1.071503623877707E-1    9.568507289637149E-1
 2.057000000000000E9    -5.316529853601383E-1    8.231289520658009E-1   -1.155741292150237E-2   -3.533652024808886E-3   -1.161947364940340E-2   -3.550647842750435E-3   -1.056962602943262E-1    9.552592344615705E-1
 2.058000000000000E9    -5.309566807246928E-1    8.230126440794064E-1   -1.170040821155748E-2   -3.513645117958355E-3   -1.163750167420430E-2   -3.570194484924650E-3   -1.055187534655082E-1    9.562814355365158E-1
 2.059000000000000E9    -5.293733082454867E-1    8.233682715973205E-1   -1.164613378061277E-2   -3.468846588404668E-3   -1.169532539618821E-2   -3.453596570853991E-3   -1.042565494018403E-1    9.548029442827158E-1
 2.060000000000000E9    -5.300924371333271E-1    8.239005915939761E-1   -1.183945766079062E-2   -3.493449915909616E-3   -1.168640995778911E-2   -3.566759730554839E-3   -1.046736705300330E-1    9.566947667278500E-1
 2.061000000000000E9    -5.292349879235143E-1    8.229390836201268E-1   -1.185044955824011E-2   -3.463863904767950E-3   -1.163365424173771E-2   -3.632079440261398E-3   -1.033796279840114E-1    9.552867236846210E-1
 2.062000000000000E9    -5.307510713505290E-1    8.257756313122526E-1   -1.182504476131834E-2   -3.415597749309306E-3   -1.182686232322442E-2   -3.536937323942948E-3   -1.019280973828618E-1    9.560947933994384E-1
 2.063000000000000E9    -5.296508032398053E-1    8.245737063003671E-1   -1.178130561506396E-2   -3.438082127052938E-3   -1.180005415378373E-2   -3.477953165056276E-3   -9.984873502904634E-2    9.577846117563700E-1
 2.064000000000000E9    -5.285711711899270E-1    8.234669654834980E-1   -1.177064336458167E-2   -3.493780333899452E-3   -1.176429923630341E-2   -3.514867428902850E-3   -9.965016140307768E-2    9.569114893453659E-1
 2.065000000000000E9    -5.266686375596857E-1    8.263627732410791E-1   -1.190971236107782E-2   -3.421824362892658E-3   -1.186804610768937E-2   -3.536140936019530E-3   -9.754331414658832E-2    9.576441225251160E-1
 2.066000000000000E9    -5.280174680978511E-1    8.248000339135370E-1   -1.182205071110931E-2   -3.460558420384369E-3   -1.185384853653184E-2   -3.478960189991078E-3   -9.753021520925451E-2    9.581167866220389E-1
 2.067000000000000E9    -5.270180575824668E-1    8.251266763289077E-1   -1.177740369006772E-2   -3.450116175449899E-3   -1.183067511007668E-2   -3.483836144920911E-3   -9.736775261623659E-2    9.562660239020508E-1
 2.068000000000000E9    -5.264585792873610E-1    8.271203258227571E-1   -1.189050657408644E-2   -3.597009219461193E-3   -1.184900406784183E-2   -3.616672019967192E-3   -9.873738033633675E-2    9.573123343201118E-1
 2.069000000000000E9    -5.286210397583514E-1    8.246526863850510E-1   -1.188875845749484E-2   -3.551218161116024E-3   -1.182571987550260E-2   -3.558564789098243E-3   -9.358520448702883E-2    9.572554829142621E-1
 2.070000000000000E9    -5.259709728441671E-1    8.278460083808648E-1   -1.207800668735578E-2   -3.493178704498852E-3   -1.193027835139535E-2   -3.426011186294845E-3   -9.395065320461211E-2    9.594629721083148E-1
 2.071000000000000E9    -5.234251895523899E-1    8.274517772616533E-1   -1.181040600312630E-2   -3.454892362409810E-3   -1.201364493482122E-2   -3.490330527438016E-3   -9.377820477255905E-2    9.558947358234903E-1
 2.072000000000000E9    -5.256165186338581E-1    8.250986532971415E-1   -1.174629069371490E-2   -3.481909369665525E-3   -1.196591418299417E-2   -3.444679876209433E-3   -9.074514566985040E-2    9.577480666843738E-1
 2.073000000000000E9    -5.249098899862681E-1    8.279749986607009E-1   -1.199283747039744E-2   -3.496597481316809E-3   -1.196454899069936E-2   -3.564777178145005E-3   -9.420363062549833E-2    9.588214540103451E-1
 2.074000000000000E9    -5.254770718166830E-1    8.300539910381701E-1   -1.202576413503250E-2   -3.371950093527314E-3   -1.206739732557446E-2   -3.557976123728603E-3   -8.969197236916655E-2    9.577931636988962E-1
 2.075000000000000E9    -5.239363653702938E-1    8.270113056798537E-1   -1.203005031739917E-2   -3.393097315587074E-3   -1.211348494862427E-2   -3.431274197622831E-3   -9.006240767660748E-2    9.574746300472773E-1
 2.076000000000000E9    -5.222709105336271E-1    8.283660827369650E-1   -1.203403155313137E-2   -3.433430141989914E-3   -1.201372131688538E-2   -3.436231037673451E-3   -8.785007618243375E-2    9.566120138463888E-1
 2.077000000000000E9    -5.245723150782158E-1    8.301444074986655E-1   -1.198525072639989E-2   -3.495323039667732E-3   -1.203292750093355E-2   -3.439325013568954E-3   -8.490254239085183E-2    9.572078093240516E-1
 2.078000000000000E9    -5.217222920257452E-1    8.301814668457399E-1   -1.211154398613493E-2   -3.252175368955498E-3   -1.217773561596261E-2   -3.402184626977445E-3   -8.495521802941115E-2    9.576140891988526E-1
 2.079000000000000E9    -5.244200254364424E-1    8.289713992921998E-1   -1.201534382310389E-2   -3.357081800136086E-3   -1.222660682330722E-2   -3.352392615670349E-3   -8.586822029164422E-2    9.579691184861279E-1
 2.080000000000000E9    -5.196576115244703E-1    8.313026483709157E-1   -1.214211013876995E-2   -3.467661997410069E-3   -1.207587755564835E-2   -3.449434376093542E-3   -8.486940134576243E-2    9.556358706656872E-1
 2.081000000000000E9    -5.221353634334168E-1    8.317305253640901E-1   -1.213829997764953E-2   -3.334058689005706E-3   -1.221763634111502E-2   -3.473856249029269E-3   -8.301817342861452E-2    9.603592722984955E-1
 2.082000000000000E9    -5.213914655413759E-1    8.288694367815854E-1   -1.226508148960142E-2   -3.510673788780377E-3   -1.219562035715026E-2   -3.408490990972006E-3   -8.194135653994095E-2    9.557848698339794E-1
 2.083000000000000E9    -5.204807354490999E-1    8.319369525771140E-1   -1.214387386994812E-2   -3.389472603289674E-3   -1.213659346270006E-2   -3.529687284604166E-3   -7.958940780655244E-2    9.552799185106300E-1
 2.084000000000000E9    -5.188544169950811E-1    8.303251921036084E-1   -1.223125329024721E-2   -3.430589989667492E-3   -1.234300708043535E-2   -3.499171868422957E-3   -8.022101906061971E-2    9.598960484709526E-1
 2.085000000000000E9    -5.181343986469639E-1    8.320670798315566E-1   -1.223537428286565E-2   -3.378011933412787E-3   -1.238925758196128E-2   -3.452388378716295E-3   -7.868203815136750E-2    9.587303480040060E-1
 2.086000000000000E9    -5.155287936790515E-1    8.332931538405605E-1   -1.224161666401729E-2   -3.411197381700220E-3   -1.236006610769726E-2   -3.449626400841743E-3   -7.779860678718648E-2    9.574677087715848E-1
 2.087000000000000E9    -5.180773632021340E-1    8.322467713564735E-1   -1.233955262906124E-2   -3.449793781527682E-3   -1.234805571519440E-2   -3.482225032749117E-3   -7.843923506633158E-2    9.579422611031155E-1
 2.088000000000000E9    -5.170198828142603E-1    8.324502345145232E-1   -1.239238864193976E-2   -3.332111055214382E-3   -1.235457069682340E-2   -3.378457025132440E-3   -7.627072484814858E-2    9.595934893174795E-1
 2.089000000000000E9    -5.173391166092866E-1    8.342108675652521E-1   -1.242094887118353E-2   -3.273427117493175E-3   -1.234220064534456E-2   -3.356445534719317E-3   -7.416437998115856E-2    9.578404338768975E-1
 2.090000000000000E9    -5.167669569427326E-1    8.323317625068125E-1   -1.242530670632600E-2   -3.345713075026666E-3   -1.245301371453999E-2   -3.499412796940963E-3   -7.596373379745854E-2    9.594354636766973E-1
