# Hz S MA R 50
! CMT, S5180, 20087786, 22.2.1/1
! Date: 10/31/2022 3:13:40 PM
! Data: Format (Calibration Info)
! Freq	S11:Mag/Ang(F2 Dmb)	S21:Mag/Ang(F2 Dmb)	S12:Mag/Ang(F2 Dmb)	S22:Mag/Ang(F2 Dmb)
1.00000000000E+09	1.04917481331E+00	1.70192539212E+02	4.88799598144E-04	-1.07752839337E+02	4.86271431783E-04	-1.08252505683E+02	1.02402477796E+00	1.64940071077E+02
1.00100000000E+09	1.04916186800E+00	1.70188676171E+02	4.91149532560E-04	-1.08882653068E+02	5.25896275894E-04	-1.08567549387E+02	1.02352025908E+00	1.64912576996E+02
1.00200000000E+09	1.04920798790E+00	1.70165000150E+02	4.99884738272E-04	-1.06761347928E+02	4.98722151502E-04	-1.09749717776E+02	1.02348583760E+00	1.64904173062E+02
1.00300000000E+09	1.04923024619E+00	1.70136882114E+02	5.09460725029E-04	-1.10457836251E+02	4.79719068878E-04	-1.10189708679E+02	1.02366789453E+00	1.64867168030E+02
1.00400000000E+09	1.04893359195E+00	1.70127634191E+02	5.19540828910E-04	-1.05022027029E+02	4.92091805405E-04	-1.07707024895E+02	1.02326580239E+00	1.64845571103E+02
1.00500000000E+09	1.04885586681E+00	1.70100302347E+02	4.82611907084E-04	-1.08762894613E+02	5.13180054197E-04	-1.06803269310E+02	1.02353140636E+00	1.64829562024E+02
1.00600000000E+09	1.04868315168E+00	1.70091110672E+02	5.04624908698E-04	-1.07625769143E+02	5.38164003160E-04	-1.08937051205E+02	1.02278963630E+00	1.64777801054E+02
1.00700000000E+09	1.04851084131E+00	1.70048663522E+02	5.07268585739E-04	-1.07296886312E+02	5.09346801656E-04	-1.09638158094E+02	1.02309700846E+00	1.64766261647E+02
1.00800000000E+09	1.04873528829E+00	1.70026832657E+02	5.18877032516E-04	-1.08660981810E+02	4.75778329149E-04	-1.07297647462E+02	1.02269739488E+00	1.64750565827E+02
1.00900000000E+09	1.04825316496E+00	1.69998386434E+02	5.33242964287E-04	-1.07100238171E+02	5.16647375779E-04	-1.06403624917E+02	1.02298439358E+00	1.64721506712E+02
1.01000000000E+09	1.04792022535E+00	1.69973430327E+02	5.09607561996E-04	-1.05592687914E+02	5.28190189873E-04	-1.07341705588E+02	1.02274181942E+00	1.64692811093E+02
1.01100000000E+09	1.04834856283E+00	1.69970165498E+02	5.23665107289E-04	-1.08465655685E+02	4.95179745512E-04	-1.04193807668E+02	1.02238313293E+00	1.64651850250E+02
1.01200000000E+09	1.04822383245E+00	1.69957873382E+02	5.05309064427E-04	-1.07219802524E+02	5.36192501441E-04	-1.08737601065E+02	1.02241671204E+00	1.64634698565E+02
1.01300000000E+09	1.04775177553E+00	1.69914142088E+02	5.00435601687E-04	-1.09770105264E+02	5.03294843457E-04	-1.06296368017E+02	1.02191342003E+00	1.64616091018E+02
1.01400000000E+09	1.04790106435E+00	1.69897158782E+02	5.11038358067E-04	-1.08343292430E+02	5.22318217809E-04	-1.08457877867E+02	1.02192902464E+00	1.64573917050E+02
1.01500000000E+09	1.04737624565E+00	1.69866992119E+02	5.31390591177E-04	-1.09395650147E+02	5.10158308693E-04	-1.05420018005E+02	1.02209146572E+00	1.64579675364E+02
1.01600000000E+09	1.04720460845E+00	1.69867718260E+02	5.28780725034E-04	-1.07523359090E+02	5.04739045897E-04	-1.07732001469E+02	1.02196379143E+00	1.64547845695E+02
1.01700000000E+09	1.04724225528E+00	1.69831803792E+02	5.42940720619E-04	-1.06511473236E+02	5.28997279743E-04	-1.07495155413E+02	1.02169369879E+00	1.64498933851E+02
1.01800000000E+09	1.04688994107E+00	1.69826463521E+02	5.09206935506E-04	-1.08001829809E+02	5.30811822451E-04	-1.10338908462E+02	1.02161037287E+00	1.64469264829E+02
1.01900000000E+09	1.04664572336E+00	1.69790758139E+02	5.26509984253E-04	-1.07009097252E+02	5.34382640149E-04	-1.10939277747E+02	1.02164420529E+00	1.64460336514E+02
1.02000000000E+09	1.04661425356E+00	1.69781245657E+02	5.13282266643E-04	-1.08231913556E+02	5.18345759997E-04	-1.09137461046E+02	1.02164254817E+00	1.64423868177E+02
1.02100000000E+09	1.04577794730E+00	1.69765014528E+02	5.26562917707E-04	-1.07162209600E+02	5.24453565872E-04	-1.05853004140E+02	1.02183491718E+00	1.64395386660E+02
1.02200000000E+09	1.04595132628E+00	1.69721794284E+02	5.47746157825E-04	-1.07179108269E+02	5.20475786955E-04	-1.08661935643E+02	1.02146849433E+00	1.64381420278E+02
1.02300000000E+09	1.04583300016E+00	1.69694199909E+02	5.28339959219E-04	-1.04876241739E+02	5.23933720972E-04	-1.06045501372E+02	1.02158437800E+00	1.64346473394E+02
1.02400000000E+09	1.04573472961E+00	1.69683169744E+02	5.28232068050E-04	-1.08927255884E+02	5.04569290843E-04	-1.07762338895E+02	1.02152590778E+00	1.64327942573E+02
1.02500000000E+09	1.04543529526E+00	1.69670123121E+02	5.32917895239E-04	-1.09568987334E+02	5.33903948533E-04	-1.08765808655E+02	1.02136212140E+00	1.64301798724E+02
1.02600000000E+09	1.04518104642E+00	1.69642281056E+02	5.22931182889E-04	-1.08373929577E+02	5.46515289872E-04	-1.06973625203E+02	1.02108926727E+00	1.64268447098E+02
1.02700000000E+09	1.04508712768E+00	1.69626206993E+02	5.54263276137E-04	-1.08994559126E+02	4.98072950483E-04	-1.10637002279E+02	1.02081794456E+00	1.64248171029E+02
1.02800000000E+09	1.04461836211E+00	1.69592833616E+02	5.16611248387E-04	-1.09070955544E+02	5.49025891025E-04	-1.08484713385E+02	1.02098527147E+00	1.64232857872E+02
1.02900000000E+09	1.04468026617E+00	1.69573967888E+02	5.38616755616E-04	-1.09097733884E+02	5.48305783166E-04	-1.10774720157E+02	1.02054917503E+00	1.64197713815E+02
1.03000000000E+09	1.04452530324E+00	1.69562083327E+02	5.54238082578E-04	-1.09478665578E+02	5.06562803797E-04	-1.07470208630E+02	1.02079786589E+00	1.64179663914E+02
1.03100000000E+09	1.04452531565E+00	1.69529652426E+02	5.65282012021E-04	-1.08885033041E+02	5.52450952063E-04	-1.08876498395E+02	1.02055439112E+00	1.64132909328E+02
1.03200000000E+09	1.04434407074E+00	1.69510681958E+02	5.71945219589E-04	-1.07175350868E+02	5.34750673625E-04	-1.11974508747E+02	1.02077949195E+00	1.64115634352E+02
1.03300000000E+09	1.04421045863E+00	1.69492170492E+02	5.42321868977E-04	-1.06856900758E+02	5.66452851570E-04	-1.09434887305E+02	1.02057079694E+00	1.64098562259E+02
1.03400000000E+09	1.04403106013E+00	1.69477771272E+02	5.49501437032E-04	-1.08335912844E+02	5.54040041398E-04	-1.06924602531E+02	1.02073805904E+00	1.64069579364E+02
1.03500000000E+09	1.04390238408E+00	1.69430998770E+02	5.57603561944E-04	-1.04673025136E+02	5.61517586591E-04	-1.07871727699E+02	1.02050082816E+00	1.64058931645E+02
1.03600000000E+09	1.04405633359E+00	1.69427635265E+02	5.44163414021E-04	-1.09245580970E+02	5.44102500613E-04	-1.07240919486E+02	1.02042260986E+00	1.64026619338E+02
1.03700000000E+09	1.04374069094E+00	1.69397489160E+02	5.55792293619E-04	-1.08411049337E+02	5.61394027473E-04	-1.06586243761E+02	1.02026820620E+00	1.64000187806E+02
1.03800000000E+09	1.04382659184E+00	1.69372478070E+02	5.49365822277E-04	-1.09266269540E+02	5.49075191991E-04	-1.09967222114E+02	1.02039760555E+00	1.63964282003E+02
1.03900000000E+09	1.04332602211E+00	1.69341134535E+02	5.58426333636E-04	-1.06877917198E+02	5.34474556024E-04	-1.08743983877E+02	1.01966578166E+00	1.63933001106E+02
1.04000000000E+09	1.04317147959E+00	1.69318660394E+02	5.54515223051E-04	-1.09854015688E+02	5.35665626582E-04	-1.08911630633E+02	1.01952355460E+00	1.63918591079E+02
1.04100000000E+09	1.04325323935E+00	1.69308978258E+02	5.44886789176E-04	-1.09595434947E+02	5.57586893071E-04	-1.09854840181E+02	1.01982753603E+00	1.63894112493E+02
1.04200000000E+09	1.04337444963E+00	1.69267727617E+02	5.70827804457E-04	-1.07968962680E+02	5.74647407463E-04	-1.08501401968E+02	1.01962218655E+00	1.63856683586E+02
1.04300000000E+09	1.04312573252E+00	1.69263287187E+02	5.43083154938E-04	-1.09728432479E+02	5.66743223238E-04	-1.09957146788E+02	1.01970954452E+00	1.63853312437E+02
1.04400000000E+09	1.04299739700E+00	1.69257028368E+02	5.43615407193E-04	-1.10051960893E+02	5.84625128822E-04	-1.09010868130E+02	1.01936980763E+00	1.63830586407E+02
1.04500000000E+09	1.04240897025E+00	1.69211772271E+02	5.62733233193E-04	-1.08468686649E+02	5.68709684918E-04	-1.05679730028E+02	1.01923901047E+00	1.63799520196E+02
1.04600000000E+09	1.04272907460E+00	1.69209210270E+02	5.85663901178E-04	-1.09448197809E+02	5.59803102870E-04	-1.09434592871E+02	1.01868805972E+00	1.63776214207E+02
1.04700000000E+09	1.04246625995E+00	1.69185954721E+02	5.79621600076E-04	-1.07842226894E+02	5.69421944515E-04	-1.08904745958E+02	1.01868052942E+00	1.63762212428E+02
1.04800000000E+09	1.04255780853E+00	1.69159292246E+02	5.63538408827E-04	-1.10454427965E+02	5.38692786601E-04	-1.09725336639E+02	1.01898892011E+00	1.63715414746E+02
1.04900000000E+09	1.04224353153E+00	1.69125262702E+02	5.77621824003E-04	-1.10655070844E+02	5.61345987880E-04	-1.09959199401E+02	1.01863670117E+00	1.63700661104E+02
1.05000000000E+09	1.04228133305E+00	1.69106323420E+02	5.61539351494E-04	-1.09115512612E+02	5.61632385334E-04	-1.08431823971E+02	1.01859686991E+00	1.63677698428E+02
1.05100000000E+09	1.04162812946E+00	1.69081820307E+02	5.99688601789E-04	-1.11268160696E+02	5.68949973138E-04	-1.08155189101E+02	1.01830355126E+00	1.63657426178E+02
1.05200000000E+09	1.04177298613E+00	1.69048481620E+02	5.78385434562E-04	-1.07518730383E+02	5.76504832087E-04	-1.09135063389E+02	1.01822922790E+00	1.63644332769E+02
1.05300000000E+09	1.04162434102E+00	1.69024395005E+02	5.76040028655E-04	-1.09996922565E+02	5.89988517776E-04	-1.07329079014E+02	1.01819612910E+00	1.63609859479E+02
1.05400000000E+09	1.04172316801E+00	1.69012741488E+02	5.62848735134E-04	-1.09258812603E+02	5.78115109137E-04	-1.09019370444E+02	1.01800710514E+00	1.63575198042E+02
1.05500000000E+09	1.04160601743E+00	1.69008744423E+02	5.60672478800E-04	-1.08674698311E+02	5.59790611437E-04	-1.10413049236E+02	1.01782129108E+00	1.63559722207E+02
1.05600000000E+09	1.04130058512E+00	1.69000428324E+02	5.99662427002E-04	-1.09750059286E+02	5.73851999517E-04	-1.08701086096E+02	1.01777079191E+00	1.63542766913E+02
1.05700000000E+09	1.04104654722E+00	1.68978399781E+02	5.75873245779E-04	-1.09041008963E+02	5.74658222007E-04	-1.10328013165E+02	1.01736973846E+00	1.63508839685E+02
1.05800000000E+09	1.04056181219E+00	1.68922014965E+02	6.08005998799E-04	-1.09759442386E+02	5.89645265635E-04	-1.08888747834E+02	1.01749500523E+00	1.63476961598E+02
1.05900000000E+09	1.04091557119E+00	1.68910736831E+02	6.04938753351E-04	-1.11557043225E+02	6.15763377967E-04	-1.10978673516E+02	1.01738902986E+00	1.63464251609E+02
1.06000000000E+09	1.04079576122E+00	1.68893110312E+02	5.84992163081E-04	-1.10222080668E+02	6.02742631256E-04	-1.11438495303E+02	1.01741788623E+00	1.63435862865E+02
1.06100000000E+09	1.04042605869E+00	1.68873551103E+02	6.11592713246E-04	-1.07342623018E+02	6.24212288279E-04	-1.09122556557E+02	1.01719576585E+00	1.63399102952E+02
1.06200000000E+09	1.03979178960E+00	1.68851032245E+02	6.16247167391E-04	-1.09493731026E+02	5.85119025410E-04	-1.09868204436E+02	1.01674187254E+00	1.63368621789E+02
1.06300000000E+09	1.03986555247E+00	1.68831853811E+02	5.99011996746E-04	-1.09927334770E+02	5.78331977067E-04	-1.08791917600E+02	1.01637207981E+00	1.63353992067E+02
1.06400000000E+09	1.03972614633E+00	1.68837561109E+02	6.08564340567E-04	-1.08771410781E+02	5.83621875963E-04	-1.09640405488E+02	1.01666794683E+00	1.63334139215E+02
1.06500000000E+09	1.03934195100E+00	1.68787780495E+02	5.78715779253E-04	-1.08683922359E+02	6.15191308856E-04	-1.06820205606E+02	1.01690548818E+00	1.63307949568E+02
1.06600000000E+09	1.03957201696E+00	1.68792743984E+02	5.75055282310E-04	-1.08820962879E+02	6.03922451147E-04	-1.10553776170E+02	1.01646598113E+00	1.63281934500E+02
1.06700000000E+09	1.03957930817E+00	1.68752162931E+02	5.93791137814E-04	-1.09356671571E+02	6.28761523670E-04	-1.08706905608E+02	1.01635694880E+00	1.63249368105E+02
1.06800000000E+09	1.03921121287E+00	1.68730107421E+02	5.93646007518E-04	-1.09677478721E+02	6.01016473337E-04	-1.08300985022E+02	1.01645944890E+00	1.63215889335E+02
1.06900000000E+09	1.03860220115E+00	1.68705769290E+02	6.39299864539E-04	-1.07394436096E+02	5.57631006094E-04	-1.11994224029E+02	1.01607059337E+00	1.63187830196E+02
1.07000000000E+09	1.03871456946E+00	1.68698583293E+02	6.15368053807E-04	-1.10822413114E+02	6.10528007165E-04	-1.09599925756E+02	1.01614700351E+00	1.63175128147E+02
1.07100000000E+09	1.03857525501E+00	1.68682370122E+02	5.96962118684E-04	-1.09029687132E+02	6.21390842200E-04	-1.08935661745E+02	1.01619408970E+00	1.63133368771E+02
1.07200000000E+09	1.03778224129E+00	1.68637984822E+02	6.16160836201E-04	-1.08618044476E+02	6.13851590479E-04	-1.08148138486E+02	1.01598918498E+00	1.63106963426E+02
1.07300000000E+09	1.03780289109E+00	1.68640368682E+02	6.13089359930E-04	-1.09857516170E+02	6.32955718134E-04	-1.09699827772E+02	1.01586501176E+00	1.63084639213E+02
1.07400000000E+09	1.03808891856E+00	1.68595142527E+02	6.27247586516E-04	-1.09718361172E+02	6.26607092340E-04	-1.10484397724E+02	1.01589843671E+00	1.63054699035E+02
1.07500000000E+09	1.03773728486E+00	1.68587179866E+02	6.05940208385E-04	-1.10625107847E+02	5.85216526170E-04	-1.11725248742E+02	1.01618949000E+00	1.63046642585E+02
1.07600000000E+09	1.03743196190E+00	1.68571979692E+02	6.14062183707E-04	-1.09862793211E+02	6.36560933352E-04	-1.10969261344E+02	1.01584008098E+00	1.63013132490E+02
1.07700000000E+09	1.03708570380E+00	1.68550366999E+02	5.93130950517E-04	-1.08395791586E+02	6.09440545461E-04	-1.07725274263E+02	1.01598223654E+00	1.62995708944E+02
1.07800000000E+09	1.03704976555E+00	1.68544541513E+02	6.20113487781E-04	-1.09011580988E+02	6.21506215751E-04	-1.07347494899E+02	1.01571773439E+00	1.62970762597E+02
1.07900000000E+09	1.03660855883E+00	1.68518284329E+02	6.10229929843E-04	-1.10503836368E+02	6.39965012712E-04	-1.11269533496E+02	1.01553525012E+00	1.62949913138E+02
1.08000000000E+09	1.03656361112E+00	1.68483235747E+02	6.14446783117E-04	-1.10433158187E+02	5.97644664434E-04	-1.10055916724E+02	1.01558082930E+00	1.62926648175E+02
1.08100000000E+09	1.03646018971E+00	1.68475721574E+02	6.54562860171E-04	-1.09274951436E+02	6.17851607442E-04	-1.10008047299E+02	1.01543057490E+00	1.62909952929E+02
1.08200000000E+09	1.03599237598E+00	1.68447664805E+02	6.20055996895E-04	-1.09027879018E+02	6.23593399217E-04	-1.08544041280E+02	1.01532427780E+00	1.62870353151E+02
1.08300000000E+09	1.03582758451E+00	1.68430098016E+02	6.26350257924E-04	-1.07625735330E+02	6.33856163289E-04	-1.10192213134E+02	1.01476293000E+00	1.62847015227E+02
1.08400000000E+09	1.03604876834E+00	1.68420130073E+02	6.35569779162E-04	-1.09903404616E+02	6.47500201473E-04	-1.11272924439E+02	1.01496509223E+00	1.62847828159E+02
1.08500000000E+09	1.03569597573E+00	1.68398695793E+02	6.17629336554E-04	-1.11070777794E+02	6.18176202414E-04	-1.08371234614E+02	1.01464126837E+00	1.62792922370E+02
1.08600000000E+09	1.03544197297E+00	1.68352818526E+02	6.52372630623E-04	-1.09561541519E+02	6.09728958771E-04	-1.12529184619E+02	1.01482238060E+00	1.62759236138E+02
1.08700000000E+09	1.03554906888E+00	1.68339471647E+02	6.46929034845E-04	-1.08988217854E+02	6.37619195285E-04	-1.09771270292E+02	1.01468757851E+00	1.62739322692E+02
1.08800000000E+09	1.03532989304E+00	1.68319808634E+02	6.39938776101E-04	-1.09451386220E+02	6.35050583709E-04	-1.11650257232E+02	1.01436810610E+00	1.62735274356E+02
1.08900000000E+09	1.03548147707E+00	1.68298406560E+02	6.69589547817E-04	-1.10107172475E+02	6.41189213699E-04	-1.10028879878E+02	1.01456206138E+00	1.62698109694E+02
1.09000000000E+09	1.03538223423E+00	1.68252681182E+02	6.16170156135E-04	-1.10414041939E+02	6.49921026726E-04	-1.10567720974E+02	1.01463043222E+00	1.62694019929E+02
1.09100000000E+09	1.03513229829E+00	1.68253484692E+02	6.36342323901E-04	-1.11443628579E+02	6.28307077334E-04	-1.12168365262E+02	1.01455596305E+00	1.62667097410E+02
1.09200000000E+09	1.03492775037E+00	1.68252033389E+02	6.43396132619E-04	-1.12343456294E+02	6.36907992122E-04	-1.09925721016E+02	1.01451149308E+00	1.62616124493E+02
1.09300000000E+09	1.03482282638E+00	1.68213921268E+02	6.46229106166E-04	-1.09672853674E+02	6.25703195482E-04	-1.11523265605E+02	1.01421499497E+00	1.62577732050E+02
1.09400000000E+09	1.03462349538E+00	1.68189065199E+02	6.43491996091E-04	-1.09209269012E+02	6.55107465633E-04	-1.10247480545E+02	1.01397718460E+00	1.62566432729E+02
1.09500000000E+09	1.03476320522E+00	1.68166905107E+02	6.49593518889E-04	-1.09602100606E+02	6.44680691658E-04	-1.11445802113E+02	1.01441379439E+00	1.62537505415E+02
1.09600000000E+09	1.03449329539E+00	1.68158126476E+02	6.50070412722E-04	-1.09536429994E+02	6.26920134996E-04	-1.09698940525E+02	1.01380428471E+00	1.62529283249E+02
1.09700000000E+09	1.03415356178E+00	1.68129721659E+02	6.42294981288E-04	-1.11247077307E+02	6.61695302741E-04	-1.10494760862E+02	1.01374807842E+00	1.62485841804E+02
1.09800000000E+09	1.03411619654E+00	1.68106639274E+02	6.40094030445E-04	-1.09669335748E+02	6.60572063519E-04	-1.14823483741E+02	1.01409662281E+00	1.62458941851E+02
1.09900000000E+09	1.03375856472E+00	1.68066793222E+02	6.42241627993E-04	-1.08311707934E+02	6.75250818907E-04	-1.09985875095E+02	1.01403269874E+00	1.62435684405E+02
1.10000000000E+09	1.03392004699E+00	1.68055616363E+02	6.72359873405E-04	-1.12338030481E+02	6.61677951073E-04	-1.11685950598E+02	1.01375777442E+00	1.62414979654E+02
1.10100000000E+09	1.03402435197E+00	1.68035528931E+02	6.30250324157E-04	-1.10443584691E+02	6.80349845605E-04	-1.10764654028E+02	1.01358520771E+00	1.62387436641E+02
1.10200000000E+09	1.03380939802E+00	1.68040934315E+02	6.76368295096E-04	-1.12109643894E+02	6.48339278858E-04	-1.10911839688E+02	1.01315165060E+00	1.62357970384E+02
1.10300000000E+09	1.03327482399E+00	1.68021731090E+02	6.70027567753E-04	-1.08119586375E+02	6.66571865656E-04	-1.09201606886E+02	1.01319519601E+00	1.62339392909E+02
1.10400000000E+09	1.03360885320E+00	1.67991844805E+02	6.70973462943E-04	-1.08798602346E+02	6.78806667815E-04	-1.11219700131E+02	1.01280604378E+00	1.62303853243E+02
1.10500000000E+09	1.03304350432E+00	1.67978509644E+02	6.80613080434E-04	-1.10119714047E+02	6.79471948826E-04	-1.12042863276E+02	1.01272766861E+00	1.62288772853E+02
1.10600000000E+09	1.03289517272E+00	1.67951039889E+02	6.61912906565E-04	-1.08653672308E+02	6.82254750375E-04	-1.11911619599E+02	1.01256958265E+00	1.62271364655E+02
1.10700000000E+09	1.03287945589E+00	1.67932854795E+02	6.57604301949E-04	-1.10213051760E+02	6.82484622247E-04	-1.11434120436E+02	1.01262985528E+00	1.62254951492E+02
1.10800000000E+09	1.03250236687E+00	1.67911605543E+02	6.82134624642E-04	-1.08580016283E+02	6.89852950293E-04	-1.09223917510E+02	1.01277608975E+00	1.62220390730E+02
1.10900000000E+09	1.03254727737E+00	1.67886042843E+02	6.63906493479E-04	-1.11538735349E+02	6.66336158560E-04	-1.10341194288E+02	1.01285637117E+00	1.62189024143E+02
1.11000000000E+09	1.03248662478E+00	1.67893105003E+02	6.81362326621E-04	-1.09996749964E+02	6.63104628142E-04	-1.10569420498E+02	1.01252428367E+00	1.62152719054E+02
1.11100000000E+09	1.03266558252E+00	1.67846767017E+02	6.68544543291E-04	-1.09762041055E+02	6.59591700348E-04	-1.10630140903E+02	1.01233948694E+00	1.62144697389E+02
1.11200000000E+09	1.03218360208E+00	1.67832951893E+02	6.81351067031E-04	-1.10395287294E+02	6.89774017540E-04	-1.10373351362E+02	1.01223670336E+00	1.62109556335E+02
1.11300000000E+09	1.03229081225E+00	1.67820142967E+02	6.86248624179E-04	-1.09420118423E+02	6.88775421701E-04	-1.11522016569E+02	1.01200275593E+00	1.62083613748E+02
1.11400000000E+09	1.03183227232E+00	1.67821647805E+02	7.13658044552E-04	-1.10631323731E+02	6.89496541438E-04	-1.10045833766E+02	1.01224893618E+00	1.62065436982E+02
1.11500000000E+09	1.03148088419E+00	1.67779025289E+02	6.91626353106E-04	-1.08721803584E+02	6.97392645515E-04	-1.12188022818E+02	1.01153405790E+00	1.62009631011E+02
1.11600000000E+09	1.03128244766E+00	1.67758666297E+02	6.81575676087E-04	-1.10324983918E+02	7.11193379253E-04	-1.09180094481E+02	1.01189335488E+00	1.62002601754E+02
1.11700000000E+09	1.03149997258E+00	1.67723716080E+02	6.97188476747E-04	-1.09545676039E+02	7.04457056555E-04	-1.09043234279E+02	1.01210259563E+00	1.61966773801E+02
1.11800000000E+09	1.03117536472E+00	1.67713973280E+02	7.00484374208E-04	-1.10465023465E+02	6.85610220186E-04	-1.10328943979E+02	1.01157376792E+00	1.61929104015E+02
1.11900000000E+09	1.03105954941E+00	1.67704294889E+02	6.80016912695E-04	-1.11140625274E+02	7.03794300285E-04	-1.12213309205E+02	1.01192623374E+00	1.61908682641E+02
