# Hz S DB R 50
! CMT, S5180, 20087786, 22.2.4/1
! Date: 2023/11/23 ¤U¤È 03:37:17
! Data: Format (Calibration Info)
! Freq	S11:dB/Ang(F2 Pxt)	S21:dB/Ang(F2 Pxt)	S12:dB/Ang(F2 Pxt)	S22:dB/Ang(F2 Pxt)
1.00000000000E+09	-1.25252037842E-01	-3.13886568092E+01	-6.72634882893E+01	4.95393845761E+01	-6.74562657161E+01	5.06638895120E+01	-2.34858137881E-01	-3.70719064825E+01
1.00100000000E+09	-1.23320428886E-01	-3.14412314863E+01	-6.71427747092E+01	5.14521848031E+01	-6.68492301060E+01	5.20900486230E+01	-2.33675783709E-01	-3.71105728180E+01
1.00200000000E+09	-1.25529369747E-01	-3.14764170698E+01	-6.68929659892E+01	5.10297016692E+01	-6.73133797312E+01	5.20070988697E+01	-2.36028482004E-01	-3.71573136862E+01
1.00300000000E+09	-1.25867174682E-01	-3.15160612638E+01	-6.76326521292E+01	5.02789248417E+01	-6.70827413980E+01	5.01258998449E+01	-2.33506022598E-01	-3.72005922449E+01
1.00400000000E+09	-1.27445661592E-01	-3.15418582245E+01	-6.70542271419E+01	5.00176475514E+01	-6.67926133329E+01	5.06060863614E+01	-2.34841208581E-01	-3.72151031297E+01
1.00500000000E+09	-1.25720667762E-01	-3.16007089160E+01	-6.67235479696E+01	5.08002002742E+01	-6.70421049974E+01	5.01019447874E+01	-2.35112344261E-01	-3.72594995660E+01
1.00600000000E+09	-1.26872063427E-01	-3.16321543209E+01	-6.67045141796E+01	5.06402222418E+01	-6.70743885673E+01	4.99514464007E+01	-2.35412426148E-01	-3.72914918847E+01
1.00700000000E+09	-1.27017990423E-01	-3.16896996137E+01	-6.67755158012E+01	4.91668996760E+01	-6.67499762785E+01	4.89930751929E+01	-2.34755607818E-01	-3.73522077910E+01
1.00800000000E+09	-1.27932676090E-01	-3.17281453373E+01	-6.72261371676E+01	5.39623617338E+01	-6.71852977352E+01	5.06754707664E+01	-2.33680202713E-01	-3.73860916880E+01
1.00900000000E+09	-1.28459815908E-01	-3.17635120846E+01	-6.68270696405E+01	4.67330139284E+01	-6.69134532449E+01	4.97649753356E+01	-2.33920999061E-01	-3.74358776964E+01
1.01000000000E+09	-1.26418550596E-01	-3.18054366022E+01	-6.68409803343E+01	5.17026327250E+01	-6.69168508986E+01	4.97316730165E+01	-2.34865151239E-01	-3.74624543677E+01
1.01100000000E+09	-1.27868031618E-01	-3.18435115362E+01	-6.66347652395E+01	5.04626741944E+01	-6.65632380663E+01	5.15412788882E+01	-2.34485814041E-01	-3.74956637570E+01
1.01200000000E+09	-1.29506210007E-01	-3.18944495099E+01	-6.66567653144E+01	5.03483531404E+01	-6.69129452722E+01	5.07404493624E+01	-2.34640076411E-01	-3.75427793920E+01
1.01300000000E+09	-1.25939690361E-01	-3.19211303522E+01	-6.66506110701E+01	5.10003629555E+01	-6.70771847289E+01	5.22815089539E+01	-2.35042996044E-01	-3.76148576011E+01
1.01400000000E+09	-1.26044617235E-01	-3.19628509345E+01	-6.67424000498E+01	5.03494366971E+01	-6.70387840677E+01	5.22844859851E+01	-2.34441060460E-01	-3.76305544351E+01
1.01500000000E+09	-1.26675331786E-01	-3.20019717170E+01	-6.66528237752E+01	5.05220843808E+01	-6.71384680096E+01	5.09981675448E+01	-2.33868815591E-01	-3.76697978047E+01
1.01600000000E+09	-1.26196054236E-01	-3.20296838707E+01	-6.66633853011E+01	5.18763579451E+01	-6.68164260233E+01	5.16956465897E+01	-2.34212834191E-01	-3.77134227240E+01
1.01700000000E+09	-1.26657635851E-01	-3.20834490079E+01	-6.68576460813E+01	5.10718257233E+01	-6.68123587591E+01	5.00657447326E+01	-2.33177115361E-01	-3.77506485484E+01
1.01800000000E+09	-1.24895880396E-01	-3.21159228423E+01	-6.63208417448E+01	4.99079419263E+01	-6.69762911665E+01	5.04589833692E+01	-2.35281555497E-01	-3.78042725685E+01
1.01900000000E+09	-1.26074914278E-01	-3.21650060536E+01	-6.67916923206E+01	4.98147589119E+01	-6.64828952229E+01	4.95468198267E+01	-2.35961591392E-01	-3.78527221369E+01
1.02000000000E+09	-1.26534166369E-01	-3.22050084927E+01	-6.66071399789E+01	4.85834457277E+01	-6.67592327041E+01	4.93449480675E+01	-2.37201803575E-01	-3.79053582676E+01
1.02100000000E+09	-1.25382422288E-01	-3.22421246662E+01	-6.66135571284E+01	5.33712802065E+01	-6.65509243670E+01	4.80212394808E+01	-2.36417605318E-01	-3.79450229808E+01
1.02200000000E+09	-1.25391348849E-01	-3.22827794702E+01	-6.67907571301E+01	5.07059861486E+01	-6.66134587417E+01	4.83566314027E+01	-2.33805001199E-01	-3.79726985718E+01
1.02300000000E+09	-1.25532509394E-01	-3.23238012825E+01	-6.66309720448E+01	5.12733710441E+01	-6.66000440124E+01	4.92884200587E+01	-2.35870668189E-01	-3.80286085170E+01
1.02400000000E+09	-1.23944781261E-01	-3.23388108399E+01	-6.66389537165E+01	4.85711378341E+01	-6.62409980148E+01	5.36584839123E+01	-2.36024516013E-01	-3.80684191008E+01
1.02500000000E+09	-1.24651549565E-01	-3.23958179306E+01	-6.67065794176E+01	4.98623290813E+01	-6.66808354449E+01	4.92306201779E+01	-2.35604671296E-01	-3.81172503326E+01
1.02600000000E+09	-1.23900745623E-01	-3.24382532702E+01	-6.65203653048E+01	4.98047347603E+01	-6.67212345914E+01	5.07911259122E+01	-2.35863756005E-01	-3.81535825267E+01
1.02700000000E+09	-1.22937589160E-01	-3.24769448371E+01	-6.67432392704E+01	4.89096572072E+01	-6.64453496496E+01	4.99954194363E+01	-2.37084386268E-01	-3.81965185538E+01
1.02800000000E+09	-1.24012989668E-01	-3.25191481038E+01	-6.66061436950E+01	4.97651590285E+01	-6.64244128460E+01	4.94086739491E+01	-2.37100845572E-01	-3.82575637982E+01
1.02900000000E+09	-1.21753303159E-01	-3.25589445711E+01	-6.65708723537E+01	4.77503876785E+01	-6.66751335433E+01	4.96784015423E+01	-2.39649868434E-01	-3.82823910053E+01
1.03000000000E+09	-1.21306842049E-01	-3.25796370569E+01	-6.63429944935E+01	4.96142449941E+01	-6.61586919446E+01	5.07679763261E+01	-2.37638629289E-01	-3.83378370821E+01
1.03100000000E+09	-1.21845209238E-01	-3.26287529168E+01	-6.63392930791E+01	5.12631387299E+01	-6.61192403183E+01	4.78705885184E+01	-2.38781324419E-01	-3.83978289911E+01
1.03200000000E+09	-1.22130827501E-01	-3.26730109888E+01	-6.65806235191E+01	4.92034159550E+01	-6.68817473561E+01	4.74221796845E+01	-2.36140764071E-01	-3.84359214045E+01
1.03300000000E+09	-1.22017010565E-01	-3.26912665426E+01	-6.66503536973E+01	4.87281109577E+01	-6.61335102762E+01	5.00356722989E+01	-2.36627319702E-01	-3.84766662118E+01
1.03400000000E+09	-1.20562071535E-01	-3.27337599331E+01	-6.63156619085E+01	5.07187562290E+01	-6.63786632800E+01	4.92459845140E+01	-2.37171458898E-01	-3.85232077079E+01
1.03500000000E+09	-1.21909755578E-01	-3.27626686523E+01	-6.63113364974E+01	4.99114871816E+01	-6.66099603737E+01	5.02244838058E+01	-2.36353977152E-01	-3.85714732279E+01
1.03600000000E+09	-1.24146499263E-01	-3.28080969281E+01	-6.65671813206E+01	4.74759807485E+01	-6.61761628365E+01	4.98689479745E+01	-2.36549547783E-01	-3.86216825505E+01
1.03700000000E+09	-1.21921728781E-01	-3.28452938511E+01	-6.62812474575E+01	4.94724679149E+01	-6.60567451893E+01	4.94043196103E+01	-2.36976331276E-01	-3.86687576013E+01
1.03800000000E+09	-1.20954698999E-01	-3.28840596839E+01	-6.64844535883E+01	4.91876685890E+01	-6.64023978733E+01	4.76558809363E+01	-2.38061066550E-01	-3.87104446746E+01
1.03900000000E+09	-1.22516116625E-01	-3.29108528438E+01	-6.60259943454E+01	4.96057328614E+01	-6.68171895527E+01	4.63106701396E+01	-2.37157752292E-01	-3.87509456683E+01
1.04000000000E+09	-1.24365682765E-01	-3.29309099815E+01	-6.64453521381E+01	4.84220204102E+01	-6.64999443820E+01	4.93191797095E+01	-2.40751963951E-01	-3.87802422391E+01
1.04100000000E+09	-1.21370710330E-01	-3.29944568518E+01	-6.63951263335E+01	5.07329110180E+01	-6.60124184399E+01	4.99970348188E+01	-2.37695805739E-01	-3.88400685245E+01
1.04200000000E+09	-1.21988264522E-01	-3.30189601047E+01	-6.63846645809E+01	4.83266686236E+01	-6.64663383803E+01	4.82695987124E+01	-2.37030438369E-01	-3.88817514076E+01
1.04300000000E+09	-1.21856601763E-01	-3.30551040873E+01	-6.60888866657E+01	4.87225749083E+01	-6.60344876760E+01	4.89233546080E+01	-2.37103815347E-01	-3.89186700165E+01
1.04400000000E+09	-1.22911548437E-01	-3.30742248151E+01	-6.61328093629E+01	4.66371642683E+01	-6.66697548927E+01	4.63049773038E+01	-2.40515488351E-01	-3.89707121360E+01
1.04500000000E+09	-1.22234518434E-01	-3.31389929068E+01	-6.57769087071E+01	4.87114420855E+01	-6.62147691316E+01	4.95741062215E+01	-2.39456052619E-01	-3.90052509813E+01
1.04600000000E+09	-1.21619899911E-01	-3.31651033483E+01	-6.58891136974E+01	4.88984845682E+01	-6.62859574624E+01	4.66636098615E+01	-2.40006816995E-01	-3.90565354542E+01
1.04700000000E+09	-1.19684268614E-01	-3.31846501869E+01	-6.59823055521E+01	4.73902753237E+01	-6.60292127193E+01	4.87613973996E+01	-2.39145405926E-01	-3.90994231501E+01
1.04800000000E+09	-1.20393992738E-01	-3.32069083818E+01	-6.59212563069E+01	4.90122295691E+01	-6.61072469432E+01	4.79883820771E+01	-2.40865389198E-01	-3.91498926449E+01
1.04900000000E+09	-1.19956469810E-01	-3.32490808518E+01	-6.60430914088E+01	4.57145575574E+01	-6.61463036521E+01	4.61375551797E+01	-2.42017733376E-01	-3.91951188381E+01
1.05000000000E+09	-1.20086734901E-01	-3.32986929774E+01	-6.57576700932E+01	4.62830731068E+01	-6.59875807368E+01	4.81022034265E+01	-2.41548195588E-01	-3.92421610353E+01
1.05100000000E+09	-1.15725489203E-01	-3.33103296399E+01	-6.62562460549E+01	4.88384018496E+01	-6.58620789511E+01	4.68183800498E+01	-2.41803422830E-01	-3.92935999635E+01
1.05200000000E+09	-1.17915769878E-01	-3.33716581620E+01	-6.64107727847E+01	4.92836634168E+01	-6.58991868903E+01	4.97606421610E+01	-2.39512747828E-01	-3.93551506986E+01
1.05300000000E+09	-1.15915444888E-01	-3.33731816640E+01	-6.60477552757E+01	4.84976572850E+01	-6.61620104692E+01	4.94842361543E+01	-2.41871309358E-01	-3.93841746561E+01
1.05400000000E+09	-1.18668375566E-01	-3.34287230595E+01	-6.59552758222E+01	4.66545027780E+01	-6.61203815715E+01	4.64415805779E+01	-2.42407950561E-01	-3.94340761275E+01
1.05500000000E+09	-1.18007409298E-01	-3.34640937773E+01	-6.61524446870E+01	5.05833407638E+01	-6.57613754149E+01	4.96299127634E+01	-2.41003453657E-01	-3.94809729886E+01
1.05600000000E+09	-1.15512823444E-01	-3.34933081123E+01	-6.56881761967E+01	4.87320784196E+01	-6.58625874283E+01	4.58323553268E+01	-2.42040482246E-01	-3.95152320784E+01
1.05700000000E+09	-1.16811648868E-01	-3.35204618071E+01	-6.61039215382E+01	4.62946474123E+01	-6.58497431236E+01	4.69868578234E+01	-2.41002344981E-01	-3.95734523133E+01
1.05800000000E+09	-1.15147434628E-01	-3.35664382215E+01	-6.62123750213E+01	4.93348580164E+01	-6.56780242048E+01	4.82294711379E+01	-2.42012869242E-01	-3.96150953310E+01
1.05900000000E+09	-1.18717939523E-01	-3.35894498198E+01	-6.59172531919E+01	4.66297472059E+01	-6.59506908941E+01	5.05394921545E+01	-2.43169916086E-01	-3.96644147273E+01
1.06000000000E+09	-1.14793602666E-01	-3.36303110421E+01	-6.58991461857E+01	4.74152105069E+01	-6.62054031104E+01	4.42475702669E+01	-2.45301478685E-01	-3.97112214591E+01
1.06100000000E+09	-1.15151212707E-01	-3.36451720530E+01	-6.60154630406E+01	4.99722165696E+01	-6.59971747515E+01	4.63378339060E+01	-2.44730382271E-01	-3.97552901911E+01
1.06200000000E+09	-1.16230557339E-01	-3.36762576596E+01	-6.59698779835E+01	5.11416084342E+01	-6.57434518946E+01	4.78125553730E+01	-2.42958367525E-01	-3.97922300801E+01
1.06300000000E+09	-1.16179451599E-01	-3.37138920196E+01	-6.59342440419E+01	4.77156467704E+01	-6.57330443419E+01	4.92430692290E+01	-2.44424245092E-01	-3.98417633893E+01
1.06400000000E+09	-1.17192778959E-01	-3.37528100996E+01	-6.56505927089E+01	4.76125229783E+01	-6.60093399231E+01	4.53842362134E+01	-2.43492693917E-01	-3.98949881214E+01
1.06500000000E+09	-1.15913126192E-01	-3.37858530234E+01	-6.57280707590E+01	4.58826912813E+01	-6.54584230468E+01	4.64444508834E+01	-2.44456964046E-01	-3.99366812820E+01
1.06600000000E+09	-1.17370644650E-01	-3.38143098545E+01	-6.58189051561E+01	5.00122028348E+01	-6.59793625850E+01	4.39321914298E+01	-2.43518849708E-01	-3.99843739542E+01
1.06700000000E+09	-1.15773407076E-01	-3.38439058438E+01	-6.60110111683E+01	4.66692028396E+01	-6.58645443137E+01	4.76157495884E+01	-2.46201296599E-01	-4.00366514603E+01
1.06800000000E+09	-1.15796928116E-01	-3.38863756426E+01	-6.62122656670E+01	4.78681764138E+01	-6.53465229412E+01	4.86979383274E+01	-2.44728865951E-01	-4.00794801303E+01
1.06900000000E+09	-1.18509570158E-01	-3.39019053528E+01	-6.60212221053E+01	4.49543877847E+01	-6.59880256723E+01	4.80469035412E+01	-2.45428660857E-01	-4.01135724234E+01
1.07000000000E+09	-1.16529665469E-01	-3.39375588273E+01	-6.56114057531E+01	4.92103971257E+01	-6.54007419501E+01	4.44270783269E+01	-2.44494748373E-01	-4.01649463567E+01
1.07100000000E+09	-1.18513125849E-01	-3.39607764073E+01	-6.58630713501E+01	4.50339574145E+01	-6.54370496384E+01	4.84776235634E+01	-2.44369615739E-01	-4.02057032535E+01
1.07200000000E+09	-1.18086352127E-01	-3.39990816504E+01	-6.60168785885E+01	4.74388540485E+01	-6.53473299634E+01	4.65423561043E+01	-2.45972114788E-01	-4.02409317513E+01
1.07300000000E+09	-1.20721698829E-01	-3.40157369260E+01	-6.55222806403E+01	4.53325158139E+01	-6.58432376461E+01	4.59157224182E+01	-2.46578721844E-01	-4.02913562182E+01
1.07400000000E+09	-1.17396730788E-01	-3.40667983889E+01	-6.52065797807E+01	4.79370460568E+01	-6.52888469510E+01	4.73001780721E+01	-2.47291875309E-01	-4.03336052066E+01
1.07500000000E+09	-1.18794036519E-01	-3.41070832344E+01	-6.56226097264E+01	4.77748633268E+01	-6.56469735841E+01	4.75306683032E+01	-2.47614831959E-01	-4.03851535506E+01
1.07600000000E+09	-1.19013421355E-01	-3.41336716080E+01	-6.53565154677E+01	4.61388381329E+01	-6.51879779394E+01	4.73504036381E+01	-2.48070385765E-01	-4.04318590937E+01
1.07700000000E+09	-6.47607190579E-02	-3.33249812167E+01	-6.53535252254E+01	4.73574942978E+01	-6.57268526542E+01	4.49088932528E+01	-2.49248451836E-01	-4.04585358432E+01
1.07800000000E+09	-7.86286043381E-02	-3.34076147475E+01	-6.57113716827E+01	4.73148467318E+01	-6.53632230089E+01	4.90427799867E+01	-2.48709858885E-01	-4.05132486271E+01
1.07900000000E+09	-1.20818988588E-01	-3.42185348111E+01	-6.58708316907E+01	4.66492709803E+01	-6.57068141629E+01	4.64493071437E+01	-2.49691944362E-01	-4.05611415920E+01
1.08000000000E+09	-1.18324883502E-01	-3.42448900784E+01	-6.51582941874E+01	4.71160967918E+01	-6.56636020083E+01	4.72157537748E+01	-2.49936637911E-01	-4.05991167823E+01
1.08100000000E+09	-1.19933893345E-01	-3.42836706308E+01	-6.52353780265E+01	4.60429508799E+01	-6.55446337654E+01	4.68301438071E+01	-2.50912966627E-01	-4.06370511720E+01
1.08200000000E+09	-1.17608072716E-01	-3.43139903137E+01	-6.55683389668E+01	4.56942000771E+01	-6.55556190717E+01	4.68018547843E+01	-2.49386757882E-01	-4.06781302635E+01
1.08300000000E+09	-1.20336777062E-01	-3.43543060430E+01	-6.53189188708E+01	4.60647844179E+01	-6.56903209020E+01	4.70903965608E+01	-2.51193792462E-01	-4.07143058301E+01
1.08400000000E+09	-1.20709352448E-01	-3.43711183264E+01	-6.50896960223E+01	4.76571123292E+01	-6.55609091158E+01	4.54342987619E+01	-2.50533974376E-01	-4.07721124849E+01
1.08500000000E+09	-1.19961336684E-01	-3.44182137047E+01	-6.53951019922E+01	4.52660436733E+01	-6.53629912148E+01	4.54367127662E+01	-2.54500910860E-01	-4.07975050430E+01
1.08600000000E+09	-1.21919413449E-01	-3.44492224189E+01	-6.51937800885E+01	4.57381251131E+01	-6.51598225290E+01	4.63149218757E+01	-2.53939938052E-01	-4.08381908975E+01
1.08700000000E+09	-1.21334522544E-01	-3.44733489399E+01	-6.53355267558E+01	4.69105141061E+01	-6.53735829596E+01	4.75500245754E+01	-2.52898795131E-01	-4.08774142842E+01
1.08800000000E+09	-1.19024520884E-01	-3.45146276805E+01	-6.52792716653E+01	4.62827444405E+01	-6.52948292117E+01	4.84804500821E+01	-2.53816086682E-01	-4.09063852840E+01
1.08900000000E+09	-1.21175228030E-01	-3.45144548820E+01	-6.51384804125E+01	4.62759286033E+01	-6.52251021308E+01	4.38440184094E+01	-2.53871763634E-01	-4.09464420822E+01
1.09000000000E+09	-1.21228624169E-01	-3.45730984560E+01	-6.56787390151E+01	4.65758555688E+01	-6.56198357587E+01	4.47375848604E+01	-2.53814349567E-01	-4.09845848489E+01
1.09100000000E+09	-1.21163073949E-01	-3.46045851605E+01	-6.51768593430E+01	4.51672765137E+01	-6.51932845634E+01	4.48815715005E+01	-2.58645057409E-01	-4.10262572105E+01
1.09200000000E+09	-1.23714838634E-01	-3.46337375476E+01	-6.52425655989E+01	4.62032870086E+01	-6.51861212475E+01	4.76254400390E+01	-2.53067919847E-01	-4.10581043719E+01
1.09300000000E+09	-1.19390539290E-01	-3.46655862181E+01	-6.51584493485E+01	4.56329463238E+01	-6.49680342386E+01	4.72699553669E+01	-2.55979855819E-01	-4.11114723546E+01
1.09400000000E+09	-1.21465622151E-01	-3.46965527102E+01	-6.52457022105E+01	4.65068302428E+01	-6.52989230601E+01	4.35514134970E+01	-2.56068273605E-01	-4.11537746683E+01
1.09500000000E+09	-1.22904560285E-01	-3.47228989340E+01	-6.53037302196E+01	4.65775834694E+01	-6.53492777549E+01	4.60451811495E+01	-2.60184170082E-01	-4.11990891168E+01
1.09600000000E+09	-1.24379876195E-01	-3.47542575347E+01	-6.52605632749E+01	4.59313157501E+01	-6.49817290436E+01	4.56883967602E+01	-2.58524370896E-01	-4.12098726386E+01
1.09700000000E+09	-1.21604832932E-01	-3.47901747764E+01	-6.52668496802E+01	4.58098580791E+01	-6.56833781046E+01	4.46467981917E+01	-2.59485410862E-01	-4.12573986642E+01
1.09800000000E+09	-1.24729750748E-01	-3.48336109948E+01	-6.54381115687E+01	4.59955808915E+01	-6.53295960798E+01	4.39946278926E+01	-2.57784739128E-01	-4.12833046812E+01
1.09900000000E+09	-1.22839991380E-01	-3.48641582402E+01	-6.52576328525E+01	4.67579851809E+01	-6.53861477196E+01	4.56263514100E+01	-2.59059478324E-01	-4.13185981599E+01
1.10000000000E+09	-1.24256822278E-01	-3.48830080758E+01	-6.51546099778E+01	4.59783902175E+01	-6.52261666773E+01	4.45474959444E+01	-2.59699596348E-01	-4.13530549919E+01
1.10100000000E+09	-1.23295678705E-01	-3.49194917994E+01	-6.52359561171E+01	4.49829571096E+01	-6.50444375742E+01	4.61875639283E+01	-2.59966600068E-01	-4.13825890011E+01
1.10200000000E+09	-1.23186223853E-01	-3.49607815151E+01	-6.48642834442E+01	4.58166182749E+01	-6.53562545483E+01	4.37563161289E+01	-2.60188851803E-01	-4.14271260942E+01
1.10300000000E+09	-1.25497942306E-01	-3.49924406341E+01	-6.50908564442E+01	4.48822851863E+01	-6.55581814874E+01	4.67447764949E+01	-2.59551044683E-01	-4.14559181021E+01
1.10400000000E+09	-1.25026200400E-01	-3.50315624544E+01	-6.51425620680E+01	4.49495369861E+01	-6.53580471396E+01	4.48182181258E+01	-2.61059050438E-01	-4.15032955735E+01
1.10500000000E+09	-1.27091961495E-01	-3.50675625456E+01	-6.49053393336E+01	4.42651280058E+01	-6.49700668619E+01	4.50940594467E+01	-2.61477920951E-01	-4.15169536863E+01
1.10600000000E+09	-1.25365117365E-01	-3.50976570181E+01	-6.51940809523E+01	4.54245335133E+01	-6.51444884019E+01	4.43398627349E+01	-2.60937517552E-01	-4.15685046068E+01
1.10700000000E+09	-1.26331272001E-01	-3.51337662730E+01	-6.50593775059E+01	4.53264147380E+01	-6.48332070778E+01	4.22032810384E+01	-2.61121121972E-01	-4.15923954438E+01
1.10800000000E+09	-1.30146344799E-01	-3.51590558647E+01	-6.51275895971E+01	4.48403577171E+01	-6.50862521784E+01	4.79290570315E+01	-2.60382880731E-01	-4.16268187455E+01
1.10900000000E+09	-1.30662713875E-01	-3.52004478872E+01	-6.51956577585E+01	4.50411128710E+01	-6.49873723549E+01	4.29678121440E+01	-2.61154280680E-01	-4.16648038566E+01
1.11000000000E+09	-1.28297992284E-01	-3.52189710851E+01	-6.48440899157E+01	4.56681749197E+01	-6.50936896282E+01	4.54011569855E+01	-2.62004321376E-01	-4.16981516720E+01
1.11100000000E+09	-1.29436696485E-01	-3.52668795650E+01	-6.49446030547E+01	4.47766432606E+01	-6.53363256631E+01	4.24645779528E+01	-2.64009580908E-01	-4.17337942916E+01
1.11200000000E+09	-1.31052001939E-01	-3.52834818661E+01	-6.49109412038E+01	4.35529033504E+01	-6.50013849036E+01	4.42119902676E+01	-2.65167767960E-01	-4.17739423708E+01
1.11300000000E+09	-1.28443811835E-01	-3.53314030608E+01	-6.49722988952E+01	4.37727092330E+01	-6.47102135435E+01	4.50756089414E+01	-2.63855516678E-01	-4.18006774831E+01
1.11400000000E+09	-1.32266361034E-01	-3.53834681536E+01	-6.48977979163E+01	4.39647102552E+01	-6.52945561950E+01	4.41737658629E+01	-2.67635787496E-01	-4.18362168572E+01
1.11500000000E+09	-1.27936699573E-01	-3.54014072286E+01	-6.51100564837E+01	4.51722466604E+01	-6.46353645227E+01	4.29292557527E+01	-2.64797934594E-01	-4.18702182637E+01
1.11600000000E+09	-1.31826470588E-01	-3.54288003366E+01	-6.48401313952E+01	4.37585555025E+01	-6.50718472729E+01	4.36816648138E+01	-2.66023299739E-01	-4.18957274067E+01
