!Akoustis s2p Touchstone File
!
!Script Version: 1.0
!Creation Data: 5/30/2023 at 02:26 PM
!
!DEEMBEDDING STATE: OFF
! Freq Mag(S11) Angle(S11)Mag(S21) Angle(S21)Mag(S12) Angle(S12)Mag(S22) Angle(S22)
!
# GHz S MA R 50
1.000000E-02	9.988010E-01	-3.412918E-01	1.756137E-04	2.347335E+01	1.943485E-04	2.613114E+01	9.994276E-01	-3.437322E-01
1.998990E-02	9.981371E-01	-6.714599E-01	1.997670E-04	-1.133379E+01	2.350813E-04	-7.476144E+00	9.993696E-01	-6.720513E-01
2.997980E-02	9.984432E-01	-1.109687E+00	1.798296E-04	-2.420657E+01	1.685116E-04	-3.336406E+01	9.986350E-01	-1.014075E+00
3.996970E-02	9.981325E-01	-1.417922E+00	1.005170E-04	-3.493759E+01	1.099104E-04	-4.498966E+01	9.984894E-01	-1.330456E+00
4.995960E-02	9.975205E-01	-1.760611E+00	7.788760E-05	-3.381520E+01	1.042317E-04	-5.203525E+01	9.979737E-01	-1.651550E+00
5.994949E-02	9.972273E-01	-2.102007E+00	4.971953E-05	-4.232204E+01	2.439533E-05	-5.495180E+01	9.977123E-01	-1.976782E+00
6.993939E-02	9.971928E-01	-2.439288E+00	1.943952E-05	-8.617392E+01	2.033468E-05	-4.524490E+01	9.974622E-01	-2.288626E+00
7.992929E-02	9.965979E-01	-2.775851E+00	3.194634E-05	-9.551794E+01	3.295191E-05	-1.193365E+02	9.973529E-01	-2.615085E+00
8.991919E-02	9.964094E-01	-3.119714E+00	4.426788E-05	-1.820362E+01	4.017290E-05	-1.704408E+01	9.962342E-01	-2.950711E+00
9.990909E-02	9.954421E-01	-3.470206E+00	1.010253E-04	1.745038E+02	8.267160E-05	-1.692135E+02	9.957186E-01	-3.260581E+00
1.098990E-01	9.948338E-01	-3.782796E+00	1.950630E-04	7.008759E+01	1.867239E-04	5.865693E+01	9.951685E-01	-3.506318E+00
1.198889E-01	9.945344E-01	-4.044686E+00	6.774859E-05	3.653811E+01	4.432180E-05	5.926768E+01	9.947050E-01	-3.823817E+00
1.298788E-01	9.946038E-01	-4.389440E+00	8.018100E-05	-2.330386E+01	8.559057E-05	-2.473584E+01	9.944685E-01	-4.088342E+00
1.398687E-01	9.941862E-01	-4.696730E+00	2.504494E-04	6.605190E+01	2.396494E-04	6.123705E+01	9.947004E-01	-4.372231E+00
1.498586E-01	9.948346E-01	-5.006830E+00	1.138368E-04	6.099841E+01	7.451753E-05	7.522212E+01	9.950603E-01	-4.648853E+00
1.598485E-01	9.943195E-01	-5.346210E+00	7.658484E-05	2.744933E+01	1.012512E-04	3.572130E+01	9.958727E-01	-4.944704E+00
1.698384E-01	9.943543E-01	-5.642726E+00	7.359343E-05	7.481462E+01	6.180266E-05	7.839440E+01	9.958345E-01	-5.282719E+00
1.798283E-01	9.944548E-01	-5.944766E+00	7.508811E-05	3.454800E+01	7.514002E-05	3.839496E+01	9.960563E-01	-5.598963E+00
1.898182E-01	9.948599E-01	-6.281150E+00	1.169649E-04	7.454902E+01	1.175043E-04	8.011861E+01	9.959610E-01	-5.920248E+00
1.998081E-01	9.949521E-01	-6.611300E+00	1.011560E-04	5.215465E+01	1.218641E-04	6.730033E+01	9.958052E-01	-6.222023E+00
2.097980E-01	9.948519E-01	-6.953347E+00	1.090114E-04	5.591355E+01	1.136265E-04	5.755774E+01	9.957635E-01	-6.537441E+00
2.197879E-01	9.945192E-01	-7.288886E+00	1.438758E-04	8.026682E+01	1.262403E-04	8.311834E+01	9.954603E-01	-6.849808E+00
2.297778E-01	9.945610E-01	-7.626472E+00	1.371779E-04	7.207918E+01	1.197385E-04	6.687235E+01	9.953866E-01	-7.167335E+00
2.397677E-01	9.943244E-01	-7.957119E+00	1.134770E-04	6.637500E+01	1.423881E-04	6.674856E+01	9.951630E-01	-7.468319E+00
2.497576E-01	9.944344E-01	-8.294394E+00	1.429380E-04	6.602593E+01	1.727703E-04	6.973669E+01	9.949736E-01	-7.774510E+00
2.597475E-01	9.944008E-01	-8.641004E+00	1.176790E-04	4.811078E+01	1.268732E-04	4.767078E+01	9.947557E-01	-8.087371E+00
2.697374E-01	9.942689E-01	-8.974207E+00	1.270012E-04	7.083346E+01	1.454351E-04	6.407556E+01	9.943305E-01	-8.370527E+00
2.797273E-01	9.941712E-01	-9.306052E+00	1.118249E-04	8.441479E+01	1.182940E-04	7.051010E+01	9.947817E-01	-8.667483E+00
2.897172E-01	9.941928E-01	-9.621185E+00	1.471936E-04	5.212451E+01	1.527550E-04	5.630085E+01	9.944341E-01	-8.966087E+00
2.997071E-01	9.939129E-01	-9.945151E+00	1.525626E-04	8.525287E+01	1.360058E-04	6.794042E+01	9.946561E-01	-9.268983E+00
3.096970E-01	9.936804E-01	-1.026841E+01	1.787902E-04	8.895537E+01	1.717343E-04	7.767412E+01	9.946569E-01	-9.561564E+00
3.196869E-01	9.939595E-01	-1.058340E+01	1.876763E-04	6.532425E+01	1.830879E-04	7.563670E+01	9.943393E-01	-9.873704E+00
3.296768E-01	9.938200E-01	-1.091367E+01	2.325436E-04	6.286026E+01	1.853224E-04	7.317284E+01	9.946014E-01	-1.017253E+01
3.396667E-01	9.940229E-01	-1.125219E+01	1.831779E-04	6.655652E+01	2.052596E-04	7.030232E+01	9.946745E-01	-1.047714E+01
3.496566E-01	9.937035E-01	-1.157823E+01	2.058715E-04	7.157582E+01	2.072285E-04	7.070799E+01	9.947514E-01	-1.078945E+01
3.596465E-01	9.937627E-01	-1.190895E+01	1.971589E-04	6.699601E+01	1.990256E-04	6.684550E+01	9.949200E-01	-1.110563E+01
3.696364E-01	9.936340E-01	-1.222537E+01	2.050839E-04	7.616949E+01	2.072092E-04	6.756460E+01	9.945256E-01	-1.142575E+01
3.796263E-01	9.936614E-01	-1.255714E+01	2.148970E-04	7.097008E+01	2.148026E-04	6.974875E+01	9.943998E-01	-1.172284E+01
3.896162E-01	9.935867E-01	-1.288101E+01	2.199177E-04	6.142992E+01	1.859355E-04	6.767354E+01	9.946328E-01	-1.202860E+01
3.996061E-01	9.938264E-01	-1.321183E+01	2.229698E-04	6.899708E+01	2.032404E-04	6.681372E+01	9.942524E-01	-1.234260E+01
4.095960E-01	9.937384E-01	-1.354819E+01	2.287873E-04	7.306656E+01	2.134297E-04	6.893762E+01	9.939884E-01	-1.265050E+01
4.195859E-01	9.938559E-01	-1.388735E+01	2.114088E-04	6.854903E+01	2.204276E-04	6.922610E+01	9.939658E-01	-1.297510E+01
4.295758E-01	9.937269E-01	-1.422190E+01	2.252601E-04	6.287550E+01	2.561758E-04	6.762765E+01	9.936635E-01	-1.326809E+01
4.395657E-01	9.936404E-01	-1.455416E+01	2.333744E-04	6.527521E+01	2.206840E-04	6.704122E+01	9.937456E-01	-1.357232E+01
4.495556E-01	9.937119E-01	-1.489605E+01	2.561671E-04	6.896315E+01	2.402664E-04	6.774152E+01	9.939369E-01	-1.387583E+01
4.595455E-01	9.936614E-01	-1.523407E+01	2.556760E-04	6.707298E+01	2.293887E-04	6.753542E+01	9.938340E-01	-1.418584E+01
4.695354E-01	9.936019E-01	-1.557346E+01	2.484807E-04	6.831400E+01	2.434174E-04	6.872291E+01	9.939225E-01	-1.449028E+01
4.795253E-01	9.935524E-01	-1.590924E+01	2.582259E-04	6.671275E+01	2.737224E-04	6.199809E+01	9.937261E-01	-1.478670E+01
4.895152E-01	9.933906E-01	-1.623856E+01	2.833367E-04	6.715340E+01	2.558793E-04	6.804172E+01	9.938196E-01	-1.508619E+01
4.995051E-01	9.932995E-01	-1.656124E+01	2.588650E-04	6.813522E+01	2.613134E-04	6.123687E+01	9.939315E-01	-1.539377E+01
5.094949E-01	9.930898E-01	-1.689613E+01	2.811878E-04	7.328434E+01	2.508678E-04	6.574514E+01	9.936844E-01	-1.570671E+01
5.194848E-01	9.929197E-01	-1.725365E+01	2.914481E-04	6.772838E+01	2.777206E-04	6.126206E+01	9.935250E-01	-1.601285E+01
5.294747E-01	9.928413E-01	-1.757567E+01	2.549850E-04	6.022246E+01	2.701323E-04	6.394916E+01	9.935679E-01	-1.632527E+01
5.394646E-01	9.925111E-01	-1.792735E+01	2.864068E-04	6.561462E+01	3.030964E-04	6.811891E+01	9.935948E-01	-1.665308E+01
5.494545E-01	9.926470E-01	-1.826901E+01	2.843931E-04	6.718799E+01	3.220070E-04	6.922651E+01	9.935451E-01	-1.696653E+01
5.594444E-01	9.923367E-01	-1.859509E+01	2.881806E-04	6.717203E+01	2.608127E-04	6.503954E+01	9.932960E-01	-1.727486E+01
5.694343E-01	9.923735E-01	-1.892595E+01	3.096338E-04	6.864295E+01	3.102793E-04	6.661691E+01	9.934418E-01	-1.759210E+01
5.794242E-01	9.921708E-01	-1.926874E+01	3.003847E-04	7.068636E+01	2.820367E-04	6.882342E+01	9.932438E-01	-1.790480E+01
5.894141E-01	9.920988E-01	-1.961283E+01	3.187513E-04	6.536651E+01	3.325920E-04	6.705682E+01	9.930237E-01	-1.821806E+01
5.994040E-01	9.923821E-01	-1.994578E+01	3.443943E-04	6.505008E+01	2.988599E-04	6.494977E+01	9.930221E-01	-1.851174E+01
6.093939E-01	9.925200E-01	-2.028304E+01	3.454898E-04	5.570415E+01	3.491734E-04	6.198433E+01	9.928194E-01	-1.879954E+01
6.193838E-01	9.921670E-01	-2.062425E+01	3.307783E-04	5.852471E+01	3.477028E-04	6.194867E+01	9.929334E-01	-1.910741E+01
6.293737E-01	9.917757E-01	-2.095559E+01	3.287847E-04	6.265181E+01	3.196549E-04	5.802826E+01	9.928978E-01	-1.941951E+01
6.393636E-01	9.920315E-01	-2.129943E+01	2.916324E-04	6.297886E+01	3.350571E-04	6.509364E+01	9.927792E-01	-1.972657E+01
6.493535E-01	9.917334E-01	-2.163093E+01	3.265242E-04	5.905712E+01	3.503763E-04	6.300543E+01	9.931693E-01	-2.003360E+01
6.593434E-01	9.917743E-01	-2.197120E+01	3.576563E-04	6.269152E+01	3.215020E-04	6.663381E+01	9.925239E-01	-2.033522E+01
6.693333E-01	9.916218E-01	-2.232697E+01	3.648794E-04	6.494630E+01	3.511466E-04	6.725309E+01	9.925675E-01	-2.065375E+01
6.793232E-01	9.912913E-01	-2.265419E+01	3.565008E-04	6.695693E+01	3.602090E-04	6.672854E+01	9.924123E-01	-2.095442E+01
6.893131E-01	9.915281E-01	-2.299645E+01	3.682487E-04	6.643792E+01	3.330273E-04	6.205052E+01	9.925002E-01	-2.127866E+01
6.993030E-01	9.912759E-01	-2.335632E+01	3.420371E-04	6.564179E+01	3.500031E-04	6.019819E+01	9.923783E-01	-2.158898E+01
7.092929E-01	9.910985E-01	-2.370754E+01	3.654539E-04	6.129481E+01	3.380010E-04	6.061541E+01	9.923224E-01	-2.190832E+01
7.192828E-01	9.910877E-01	-2.404020E+01	3.604193E-04	5.864169E+01	3.666247E-04	6.359682E+01	9.922573E-01	-2.223532E+01
7.292727E-01	9.910969E-01	-2.439610E+01	3.827579E-04	5.891059E+01	3.737725E-04	5.988188E+01	9.921270E-01	-2.253725E+01
7.392626E-01	9.908828E-01	-2.473962E+01	3.573570E-04	6.175145E+01	3.863200E-04	6.038261E+01	9.921648E-01	-2.284279E+01
7.492525E-01	9.909245E-01	-2.508640E+01	3.625268E-04	5.952558E+01	3.786644E-04	6.236983E+01	9.920144E-01	-2.315946E+01
7.592424E-01	9.908663E-01	-2.542271E+01	3.745584E-04	6.174301E+01	3.935861E-04	5.834760E+01	9.920349E-01	-2.346838E+01
7.692323E-01	9.908785E-01	-2.576353E+01	4.049005E-04	6.686468E+01	3.654601E-04	5.734677E+01	9.917571E-01	-2.377733E+01
7.792222E-01	9.909268E-01	-2.611242E+01	3.986993E-04	6.055244E+01	4.040471E-04	5.933539E+01	9.918727E-01	-2.409690E+01
7.892121E-01	9.909610E-01	-2.646881E+01	4.076882E-04	6.036401E+01	4.055298E-04	6.068100E+01	9.915378E-01	-2.440390E+01
7.992020E-01	9.909435E-01	-2.682592E+01	3.869634E-04	5.972749E+01	4.011297E-04	6.201374E+01	9.915320E-01	-2.472302E+01
8.091919E-01	9.906530E-01	-2.717870E+01	3.960684E-04	5.870117E+01	4.207894E-04	6.134588E+01	9.912964E-01	-2.503164E+01
8.191818E-01	9.906715E-01	-2.751601E+01	4.068122E-04	5.926185E+01	4.185537E-04	6.172563E+01	9.912853E-01	-2.534149E+01
8.291717E-01	9.903752E-01	-2.786444E+01	4.071219E-04	5.982307E+01	4.141059E-04	6.004758E+01	9.914892E-01	-2.566528E+01
8.391616E-01	9.902945E-01	-2.821650E+01	4.229438E-04	5.957709E+01	4.071595E-04	5.769093E+01	9.914612E-01	-2.596887E+01
8.491515E-01	9.902477E-01	-2.856948E+01	4.072656E-04	6.125104E+01	4.124979E-04	5.858286E+01	9.911212E-01	-2.628537E+01
8.591414E-01	9.902232E-01	-2.892432E+01	4.114285E-04	5.531198E+01	4.165016E-04	5.731801E+01	9.913326E-01	-2.659355E+01
8.691313E-01	9.898780E-01	-2.927263E+01	4.385280E-04	5.658252E+01	4.429066E-04	5.690368E+01	9.911679E-01	-2.690398E+01
8.791212E-01	9.899922E-01	-2.963705E+01	4.427632E-04	5.783312E+01	4.140454E-04	5.529361E+01	9.910558E-01	-2.722917E+01
8.891111E-01	9.896982E-01	-2.998437E+01	4.364915E-04	5.690126E+01	4.124812E-04	5.584660E+01	9.908499E-01	-2.753355E+01
8.991010E-01	9.894967E-01	-3.034404E+01	4.311989E-04	5.683635E+01	4.454244E-04	5.602076E+01	9.903708E-01	-2.785606E+01
9.090909E-01	9.895975E-01	-3.070978E+01	4.568808E-04	5.884702E+01	4.207246E-04	5.338366E+01	9.902698E-01	-2.818989E+01
9.190808E-01	9.892978E-01	-3.106238E+01	4.460287E-04	5.380627E+01	4.439866E-04	5.675373E+01	9.903202E-01	-2.849916E+01
9.290707E-01	9.893728E-01	-3.140860E+01	4.649624E-04	5.406257E+01	4.458053E-04	5.421107E+01	9.901095E-01	-2.881380E+01
9.390606E-01	9.892782E-01	-3.178570E+01	4.307749E-04	5.467608E+01	4.498724E-04	5.439676E+01	9.900150E-01	-2.913503E+01
9.490505E-01	9.891093E-01	-3.213323E+01	4.687396E-04	5.454470E+01	4.688871E-04	5.352919E+01	9.900843E-01	-2.944606E+01
9.590404E-01	9.891272E-01	-3.249789E+01	4.480436E-04	5.442623E+01	4.727201E-04	5.440122E+01	9.899061E-01	-2.975120E+01
9.690303E-01	9.890220E-01	-3.284845E+01	4.646794E-04	5.240413E+01	4.649325E-04	5.500186E+01	9.900766E-01	-3.006223E+01
9.790202E-01	9.890148E-01	-3.321314E+01	4.656838E-04	5.193153E+01	4.648476E-04	5.256118E+01	9.894587E-01	-3.037289E+01
9.890101E-01	9.890542E-01	-3.355811E+01	4.727361E-04	5.460429E+01	4.818641E-04	5.250807E+01	9.895505E-01	-3.068334E+01
9.990000E-01	9.886709E-01	-3.390557E+01	5.058915E-04	5.254564E+01	4.863046E-04	5.255365E+01	9.894640E-01	-3.098886E+01
1.000000E+00	9.883680E-01	-3.395117E+01	4.841803E-04	5.387669E+01	4.733794E-04	5.457223E+01	9.895857E-01	-3.102772E+01
1.003750E+00	9.886344E-01	-3.408731E+01	4.855969E-04	5.473977E+01	4.892713E-04	5.150024E+01	9.894612E-01	-3.113643E+01
1.007500E+00	9.882428E-01	-3.421186E+01	4.881892E-04	5.382568E+01	4.643880E-04	5.231953E+01	9.895625E-01	-3.126914E+01
1.011250E+00	9.886827E-01	-3.436542E+01	4.788463E-04	5.424466E+01	4.982959E-04	5.186831E+01	9.895587E-01	-3.139517E+01
1.015000E+00	9.883984E-01	-3.449394E+01	4.747419E-04	5.538460E+01	4.827497E-04	5.320226E+01	9.893568E-01	-3.149922E+01
1.018750E+00	9.883979E-01	-3.463745E+01	4.969328E-04	5.228419E+01	4.818418E-04	5.313890E+01	9.894140E-01	-3.163570E+01
1.022500E+00	9.885005E-01	-3.476816E+01	5.020060E-04	5.214206E+01	4.911591E-04	5.345263E+01	9.893884E-01	-3.174451E+01
1.026250E+00	9.884219E-01	-3.491549E+01	4.989819E-04	5.287291E+01	4.825478E-04	5.244573E+01	9.893851E-01	-3.186836E+01
1.030000E+00	9.884283E-01	-3.504401E+01	4.912354E-04	5.355849E+01	4.930987E-04	5.232650E+01	9.894128E-01	-3.198343E+01
1.033750E+00	9.882699E-01	-3.517261E+01	5.098057E-04	5.282981E+01	5.073686E-04	5.282399E+01	9.892994E-01	-3.210707E+01
1.037500E+00	9.881296E-01	-3.532028E+01	5.057299E-04	5.099476E+01	4.948064E-04	4.958268E+01	9.893563E-01	-3.221250E+01
1.041250E+00	9.880890E-01	-3.545443E+01	4.845089E-04	5.454515E+01	5.005233E-04	5.265257E+01	9.895938E-01	-3.235204E+01
1.045000E+00	9.881008E-01	-3.559364E+01	5.016551E-04	5.042747E+01	4.857350E-04	5.294227E+01	9.887723E-01	-3.246704E+01
1.048750E+00	9.880735E-01	-3.572737E+01	4.838481E-04	4.982875E+01	5.270852E-04	5.109818E+01	9.888200E-01	-3.259077E+01
1.052500E+00	9.879149E-01	-3.586839E+01	5.024202E-04	5.331563E+01	4.925826E-04	5.215254E+01	9.888783E-01	-3.270136E+01
1.056250E+00	9.880103E-01	-3.601728E+01	5.129556E-04	5.085427E+01	5.002500E-04	4.962260E+01	9.886771E-01	-3.282064E+01
1.060000E+00	9.879833E-01	-3.616115E+01	5.059785E-04	5.254314E+01	5.242007E-04	5.075606E+01	9.887971E-01	-3.294168E+01
1.063750E+00	9.881333E-01	-3.628894E+01	4.986402E-04	5.218137E+01	5.151888E-04	5.146313E+01	9.886309E-01	-3.305719E+01
1.067500E+00	9.880536E-01	-3.642216E+01	4.779320E-04	5.324142E+01	5.156039E-04	5.238007E+01	9.888825E-01	-3.316635E+01
1.071250E+00	9.879323E-01	-3.655897E+01	5.264163E-04	5.175378E+01	5.044174E-04	4.927574E+01	9.891274E-01	-3.330779E+01
1.075000E+00	9.879399E-01	-3.670920E+01	5.209031E-04	4.941687E+01	5.246113E-04	5.133935E+01	9.887880E-01	-3.342356E+01
1.078750E+00	9.879649E-01	-3.685742E+01	5.150841E-04	4.962549E+01	5.342300E-04	5.176281E+01	9.891348E-01	-3.353700E+01
1.082500E+00	9.878884E-01	-3.699904E+01	4.936089E-04	5.218979E+01	5.066882E-04	5.111626E+01	9.889018E-01	-3.364999E+01
1.086250E+00	9.875614E-01	-3.714164E+01	5.221992E-04	5.216342E+01	5.087851E-04	4.725899E+01	9.887956E-01	-3.376312E+01
1.090000E+00	9.876997E-01	-3.726825E+01	5.199023E-04	4.866627E+01	5.288465E-04	4.955666E+01	9.887808E-01	-3.388848E+01
1.093750E+00	9.875617E-01	-3.741496E+01	5.271268E-04	5.159656E+01	5.257925E-04	4.859588E+01	9.886094E-01	-3.400585E+01
1.097500E+00	9.873556E-01	-3.754674E+01	5.141266E-04	5.103240E+01	5.138499E-04	4.997911E+01	9.885233E-01	-3.413195E+01
1.101250E+00	9.876558E-01	-3.769430E+01	5.174427E-04	4.882804E+01	5.218620E-04	4.912004E+01	9.885758E-01	-3.425098E+01
1.105000E+00	9.875148E-01	-3.783461E+01	5.359609E-04	4.843581E+01	5.188736E-04	4.973059E+01	9.887486E-01	-3.435289E+01
1.108750E+00	9.875991E-01	-3.796013E+01	5.185797E-04	5.091644E+01	5.096204E-04	5.033351E+01	9.885665E-01	-3.446293E+01
1.112500E+00	9.873117E-01	-3.809234E+01	5.382155E-04	4.825386E+01	5.208811E-04	4.767408E+01	9.888024E-01	-3.457253E+01
1.116250E+00	9.873191E-01	-3.823466E+01	5.213846E-04	4.851229E+01	5.318105E-04	4.640226E+01	9.883279E-01	-3.472020E+01
1.120000E+00	9.869619E-01	-3.836921E+01	5.291053E-04	5.022997E+01	5.383553E-04	4.994848E+01	9.881371E-01	-3.482412E+01
1.123750E+00	9.870897E-01	-3.850029E+01	5.562255E-04	4.767662E+01	5.414230E-04	4.820871E+01	9.880624E-01	-3.493125E+01
1.127500E+00	9.871876E-01	-3.866067E+01	5.178293E-04	4.849056E+01	5.442939E-04	4.899430E+01	9.882817E-01	-3.504936E+01
1.131250E+00	9.871313E-01	-3.878480E+01	5.315511E-04	4.913257E+01	5.356732E-04	4.880702E+01	9.882637E-01	-3.519816E+01
1.135000E+00	9.870748E-01	-3.894586E+01	5.476003E-04	4.937984E+01	5.313088E-04	4.866061E+01	9.881739E-01	-3.531098E+01
1.138750E+00	9.871578E-01	-3.906719E+01	5.217751E-04	4.763310E+01	5.337702E-04	4.808737E+01	9.882031E-01	-3.542485E+01
1.142500E+00	9.872729E-01	-3.920683E+01	5.245991E-04	4.966084E+01	5.358474E-04	4.806398E+01	9.881979E-01	-3.554618E+01
1.146250E+00	9.866155E-01	-3.935652E+01	5.318112E-04	4.894426E+01	5.496548E-04	4.699400E+01	9.877795E-01	-3.565821E+01
1.150000E+00	9.871396E-01	-3.948857E+01	5.434338E-04	4.733764E+01	5.439411E-04	4.663236E+01	9.876566E-01	-3.578195E+01
1.153750E+00	9.869528E-01	-3.962953E+01	5.450712E-04	4.742451E+01	5.528659E-04	4.688176E+01	9.880129E-01	-3.590416E+01
1.157500E+00	9.866775E-01	-3.976304E+01	5.685852E-04	4.627271E+01	5.512285E-04	4.665171E+01	9.882193E-01	-3.603186E+01
1.161250E+00	9.868958E-01	-3.990334E+01	5.442144E-04	4.607753E+01	5.314031E-04	4.735229E+01	9.878078E-01	-3.615012E+01
1.165000E+00	9.865962E-01	-4.003946E+01	5.537794E-04	4.885390E+01	5.357110E-04	4.845677E+01	9.878402E-01	-3.625865E+01
1.168750E+00	9.864082E-01	-4.018318E+01	5.540268E-04	4.555259E+01	5.549664E-04	4.656268E+01	9.879189E-01	-3.636678E+01
1.172500E+00	9.861193E-01	-4.031419E+01	5.525748E-04	4.917915E+01	5.578775E-04	4.773914E+01	9.879049E-01	-3.650375E+01
1.176250E+00	9.866247E-01	-4.045631E+01	5.725152E-04	4.908850E+01	5.742521E-04	4.590811E+01	9.881631E-01	-3.662276E+01
1.180000E+00	9.863491E-01	-4.059475E+01	5.745871E-04	4.778695E+01	5.630498E-04	4.562938E+01	9.877004E-01	-3.676092E+01
1.183750E+00	9.862114E-01	-4.074566E+01	5.498896E-04	4.580817E+01	5.547456E-04	4.660459E+01	9.878550E-01	-3.685908E+01
1.187500E+00	9.866511E-01	-4.086890E+01	5.676747E-04	4.543591E+01	5.524335E-04	4.551223E+01	9.877856E-01	-3.697401E+01
1.191250E+00	9.864499E-01	-4.102080E+01	5.743747E-04	4.701106E+01	5.517962E-04	4.663541E+01	9.877668E-01	-3.708274E+01
1.195000E+00	9.864230E-01	-4.116032E+01	5.728768E-04	4.898185E+01	5.705301E-04	4.541926E+01	9.878488E-01	-3.719805E+01
1.198750E+00	9.862446E-01	-4.130529E+01	5.622284E-04	4.577916E+01	5.581998E-04	4.565805E+01	9.873607E-01	-3.732689E+01
1.202500E+00	9.863582E-01	-4.143837E+01	5.726852E-04	4.593559E+01	5.652227E-04	4.723357E+01	9.876786E-01	-3.744432E+01
1.206250E+00	9.863841E-01	-4.156107E+01	5.552150E-04	4.622881E+01	5.879018E-04	4.681393E+01	9.873929E-01	-3.755722E+01
1.210000E+00	9.863040E-01	-4.172153E+01	5.403419E-04	4.549038E+01	5.869030E-04	4.491626E+01	9.876490E-01	-3.767099E+01
1.213750E+00	9.859320E-01	-4.184350E+01	5.607729E-04	4.644801E+01	5.763818E-04	4.577709E+01	9.875737E-01	-3.778188E+01
1.217500E+00	9.859077E-01	-4.200156E+01	5.983560E-04	4.548197E+01	5.742313E-04	4.541180E+01	9.875599E-01	-3.790316E+01
1.221250E+00	9.857896E-01	-4.214705E+01	5.733069E-04	4.406147E+01	5.929230E-04	4.479842E+01	9.875327E-01	-3.800956E+01
1.225000E+00	9.857064E-01	-4.230244E+01	5.844738E-04	4.619754E+01	5.779062E-04	4.373036E+01	9.870833E-01	-3.814021E+01
1.228750E+00	9.855338E-01	-4.244190E+01	5.964810E-04	4.331514E+01	5.823219E-04	4.329041E+01	9.872922E-01	-3.827759E+01
1.232500E+00	9.854836E-01	-4.257904E+01	5.853120E-04	4.745532E+01	5.890434E-04	4.376731E+01	9.872631E-01	-3.839465E+01
1.236250E+00	9.854460E-01	-4.272405E+01	5.822854E-04	4.648127E+01	5.732338E-04	4.533777E+01	9.868378E-01	-3.852442E+01
1.240000E+00	9.855055E-01	-4.286472E+01	5.779219E-04	4.438076E+01	5.846634E-04	4.360174E+01	9.868154E-01	-3.862587E+01
1.243750E+00	9.853174E-01	-4.300693E+01	5.906188E-04	4.296869E+01	5.760487E-04	4.367687E+01	9.868643E-01	-3.874526E+01
