!Akoustis s2p Touchstone File
!
!Script Version: 1.0
!Creation Data: 12/27/2021 at 10:19 PM
!
! Freq Mag(S11) Angle(S11)Mag(S21) Angle(S21)Mag(S12) Angle(S12)Mag(S22) Angle(S22)
!
# GHz S MA R 50
1.000000E-03	9.978942E-01	-6.826487E-02	3.355265E-05	1.473140E+02	5.808432E-05	9.215912E+01	9.979370E-01	-5.328074E-02
1.128021E-02	9.984829E-01	-8.089011E-01	2.107491E-04	6.884559E+01	2.163208E-04	6.884752E+01	9.988119E-01	-9.780357E-01
2.156041E-02	9.982712E-01	-1.566279E+00	3.642278E-04	8.004719E+01	3.570965E-04	7.716446E+01	9.986407E-01	-1.852480E+00
3.184062E-02	9.979467E-01	-2.312874E+00	5.538963E-04	8.375862E+01	5.496307E-04	8.319861E+01	9.983687E-01	-2.737847E+00
4.212082E-02	9.974502E-01	-3.067465E+00	7.414829E-04	8.407324E+01	7.360385E-04	8.439693E+01	9.980386E-01	-3.609568E+00
5.240103E-02	9.969641E-01	-3.830829E+00	9.263128E-04	8.451329E+01	9.266432E-04	8.409190E+01	9.979770E-01	-4.483640E+00
6.268123E-02	9.969234E-01	-4.580398E+00	1.142278E-03	8.427772E+01	1.147386E-03	8.458551E+01	9.977385E-01	-5.341915E+00
7.296144E-02	9.968950E-01	-5.325386E+00	1.320155E-03	8.303002E+01	1.324803E-03	8.304197E+01	9.976641E-01	-6.183014E+00
8.324165E-02	9.970136E-01	-6.079319E+00	1.529763E-03	8.278450E+01	1.537590E-03	8.243058E+01	9.975417E-01	-7.025368E+00
9.352185E-02	9.970990E-01	-6.845899E+00	1.744096E-03	8.115377E+01	1.727162E-03	8.131697E+01	9.972293E-01	-7.891629E+00
1.038021E-01	9.970168E-01	-7.600842E+00	1.909065E-03	7.927051E+01	1.918044E-03	7.944138E+01	9.968773E-01	-8.751948E+00
1.140823E-01	9.964167E-01	-8.372827E+00	2.135916E-03	7.957057E+01	2.139534E-03	7.973216E+01	9.964347E-01	-9.569110E+00
1.243625E-01	9.959168E-01	-9.104705E+00	2.266153E-03	7.317953E+01	2.271224E-03	7.295862E+01	9.954672E-01	-1.042409E+01
1.346427E-01	9.957389E-01	-9.868236E+00	2.464202E-03	7.419316E+01	2.455542E-03	7.386838E+01	9.947731E-01	-1.126078E+01
1.449229E-01	9.958369E-01	-1.060452E+01	2.530299E-03	7.403738E+01	2.541946E-03	7.395767E+01	9.945715E-01	-1.202761E+01
1.552031E-01	9.958723E-01	-1.138013E+01	2.701234E-03	7.507007E+01	2.708345E-03	7.510838E+01	9.952504E-01	-1.284005E+01
1.654833E-01	9.957640E-01	-1.214646E+01	2.874139E-03	7.543533E+01	2.871728E-03	7.520177E+01	9.944926E-01	-1.361883E+01
1.757635E-01	9.954707E-01	-1.291133E+01	3.067559E-03	7.508471E+01	3.075183E-03	7.498697E+01	9.950933E-01	-1.446793E+01
1.860437E-01	9.955138E-01	-1.367034E+01	3.284850E-03	7.488836E+01	3.291984E-03	7.461976E+01	9.956680E-01	-1.537194E+01
1.963239E-01	9.954482E-01	-1.444095E+01	3.504499E-03	7.366144E+01	3.510727E-03	7.375676E+01	9.957011E-01	-1.626770E+01
2.066041E-01	9.950323E-01	-1.520495E+01	3.700742E-03	7.295839E+01	3.702124E-03	7.291771E+01	9.956219E-01	-1.715696E+01
2.168843E-01	9.952426E-01	-1.595933E+01	3.903065E-03	7.185684E+01	3.897188E-03	7.171787E+01	9.953201E-01	-1.803831E+01
2.271645E-01	9.947925E-01	-1.671226E+01	4.080675E-03	7.072165E+01	4.087040E-03	7.055058E+01	9.952274E-01	-1.890518E+01
2.374447E-01	9.945219E-01	-1.745216E+01	4.267665E-03	7.017661E+01	4.268501E-03	6.996414E+01	9.950858E-01	-1.975356E+01
2.477249E-01	9.942835E-01	-1.819242E+01	4.457471E-03	6.857007E+01	4.456989E-03	6.852931E+01	9.949002E-01	-2.059538E+01
2.580051E-01	9.941085E-01	-1.893590E+01	4.597174E-03	6.719283E+01	4.597586E-03	6.720045E+01	9.946098E-01	-2.143388E+01
2.682853E-01	9.938750E-01	-1.969858E+01	4.702432E-03	6.709566E+01	4.724629E-03	6.705440E+01	9.940739E-01	-2.226555E+01
2.785656E-01	9.941828E-01	-2.047407E+01	4.910358E-03	6.623869E+01	4.932614E-03	6.593986E+01	9.934112E-01	-2.309050E+01
2.888458E-01	9.934174E-01	-2.125697E+01	5.083144E-03	6.522485E+01	5.088772E-03	6.519232E+01	9.937861E-01	-2.390506E+01
2.991260E-01	9.935469E-01	-2.203487E+01	5.238526E-03	6.502552E+01	5.232253E-03	6.482603E+01	9.931194E-01	-2.472167E+01
3.094062E-01	9.934313E-01	-2.282666E+01	5.417161E-03	6.452522E+01	5.443421E-03	6.425589E+01	9.932670E-01	-2.554928E+01
3.196864E-01	9.934731E-01	-2.359527E+01	5.625380E-03	6.385732E+01	5.623529E-03	6.371830E+01	9.930173E-01	-2.636427E+01
3.299666E-01	9.932901E-01	-2.436040E+01	5.822765E-03	6.302502E+01	5.827760E-03	6.302687E+01	9.931145E-01	-2.719390E+01
3.402468E-01	9.936234E-01	-2.511595E+01	6.005368E-03	6.237350E+01	6.013179E-03	6.219434E+01	9.928993E-01	-2.802011E+01
3.505270E-01	9.930583E-01	-2.587075E+01	6.184356E-03	6.150970E+01	6.203042E-03	6.123246E+01	9.929870E-01	-2.884124E+01
3.608072E-01	9.930072E-01	-2.662042E+01	6.360701E-03	6.069176E+01	6.379993E-03	6.052016E+01	9.927466E-01	-2.968444E+01
3.710874E-01	9.929145E-01	-2.736185E+01	6.545362E-03	5.966589E+01	6.554909E-03	5.958433E+01	9.928822E-01	-3.052963E+01
3.813676E-01	9.927481E-01	-2.809441E+01	6.708479E-03	5.897840E+01	6.732197E-03	5.887310E+01	9.924604E-01	-3.139077E+01
3.916478E-01	9.925714E-01	-2.883678E+01	6.888904E-03	5.815150E+01	6.904513E-03	5.803941E+01	9.923907E-01	-3.224155E+01
4.019280E-01	9.924288E-01	-2.956042E+01	7.092737E-03	5.733586E+01	7.101457E-03	5.719936E+01	9.923287E-01	-3.311119E+01
4.122082E-01	9.920678E-01	-3.029018E+01	7.242159E-03	5.634456E+01	7.261811E-03	5.633405E+01	9.924276E-01	-3.397164E+01
4.224884E-01	9.923139E-01	-3.100605E+01	7.408860E-03	5.558711E+01	7.423291E-03	5.549230E+01	9.917239E-01	-3.485463E+01
4.327686E-01	9.920402E-01	-3.173112E+01	7.560916E-03	5.503891E+01	7.597477E-03	5.494881E+01	9.917609E-01	-3.572471E+01
4.430488E-01	9.913789E-01	-3.245878E+01	7.779506E-03	5.432486E+01	7.791702E-03	5.431453E+01	9.914422E-01	-3.660586E+01
4.533290E-01	9.917180E-01	-3.317118E+01	7.959030E-03	5.346947E+01	7.977011E-03	5.340781E+01	9.914130E-01	-3.747890E+01
4.636093E-01	9.915675E-01	-3.389833E+01	8.153475E-03	5.278665E+01	8.179244E-03	5.275102E+01	9.911990E-01	-3.835418E+01
4.738895E-01	9.915376E-01	-3.461662E+01	8.319024E-03	5.195738E+01	8.336816E-03	5.191929E+01	9.913779E-01	-3.922829E+01
4.841697E-01	9.915674E-01	-3.532301E+01	8.488305E-03	5.113945E+01	8.514772E-03	5.098274E+01	9.912722E-01	-4.011096E+01
4.944499E-01	9.916615E-01	-3.603746E+01	8.670904E-03	5.037463E+01	8.686525E-03	5.029464E+01	9.913196E-01	-4.096838E+01
5.047301E-01	9.914764E-01	-3.676499E+01	8.850127E-03	4.957252E+01	8.868956E-03	4.943927E+01	9.908121E-01	-4.181795E+01
5.150103E-01	9.912003E-01	-3.751044E+01	9.023575E-03	4.876719E+01	9.039240E-03	4.867012E+01	9.908451E-01	-4.266535E+01
5.252905E-01	9.903008E-01	-3.828286E+01	9.199651E-03	4.801706E+01	9.215590E-03	4.789072E+01	9.910679E-01	-4.349927E+01
5.355707E-01	9.902586E-01	-3.905021E+01	9.367253E-03	4.725553E+01	9.384046E-03	4.720412E+01	9.902329E-01	-4.434078E+01
5.458509E-01	9.899855E-01	-3.981385E+01	9.536508E-03	4.652222E+01	9.565915E-03	4.640344E+01	9.901231E-01	-4.516604E+01
5.561311E-01	9.898613E-01	-4.057802E+01	9.725376E-03	4.561672E+01	9.748384E-03	4.547071E+01	9.899297E-01	-4.599763E+01
5.664113E-01	9.899139E-01	-4.133058E+01	9.923726E-03	4.487710E+01	9.932375E-03	4.481222E+01	9.898849E-01	-4.681652E+01
5.766915E-01	9.907218E-01	-4.208771E+01	1.009050E-02	4.403470E+01	1.011911E-02	4.402915E+01	9.898393E-01	-4.762555E+01
5.869717E-01	9.902436E-01	-4.283249E+01	1.027280E-02	4.321978E+01	1.029021E-02	4.314906E+01	9.896457E-01	-4.846188E+01
5.972519E-01	9.901671E-01	-4.358277E+01	1.043786E-02	4.243601E+01	1.045917E-02	4.234688E+01	9.894874E-01	-4.929567E+01
6.075321E-01	9.902210E-01	-4.431001E+01	1.061360E-02	4.163812E+01	1.062279E-02	4.159238E+01	9.897988E-01	-5.013530E+01
6.178123E-01	9.897925E-01	-4.504447E+01	1.079403E-02	4.085980E+01	1.082072E-02	4.081532E+01	9.891963E-01	-5.100074E+01
6.280925E-01	9.895036E-01	-4.576716E+01	1.097124E-02	4.002871E+01	1.099388E-02	3.996938E+01	9.891105E-01	-5.185282E+01
6.383728E-01	9.892570E-01	-4.648408E+01	1.113863E-02	3.931848E+01	1.116528E-02	3.923646E+01	9.889321E-01	-5.270418E+01
6.486530E-01	9.891355E-01	-4.720460E+01	1.130782E-02	3.847625E+01	1.133630E-02	3.841704E+01	9.889881E-01	-5.356104E+01
6.589332E-01	9.895165E-01	-4.791017E+01	1.149141E-02	3.777365E+01	1.149743E-02	3.766530E+01	9.886372E-01	-5.441918E+01
6.692134E-01	9.889688E-01	-4.864086E+01	1.165381E-02	3.701638E+01	1.166158E-02	3.689062E+01	9.888049E-01	-5.527702E+01
6.794936E-01	9.881729E-01	-4.937643E+01	1.182401E-02	3.624356E+01	1.184810E-02	3.615759E+01	9.882161E-01	-5.613227E+01
6.897738E-01	9.886104E-01	-5.010934E+01	1.203336E-02	3.545619E+01	1.204162E-02	3.543444E+01	9.882390E-01	-5.698787E+01
7.000540E-01	9.883467E-01	-5.084972E+01	1.222843E-02	3.473994E+01	1.224010E-02	3.465477E+01	9.878288E-01	-5.786118E+01
7.103342E-01	9.882985E-01	-5.158256E+01	1.242111E-02	3.381927E+01	1.245235E-02	3.380637E+01	9.877881E-01	-5.872237E+01
7.206144E-01	9.882040E-01	-5.231128E+01	1.259587E-02	3.295742E+01	1.261340E-02	3.287187E+01	9.875595E-01	-5.958514E+01
7.308946E-01	9.885502E-01	-5.303967E+01	1.275667E-02	3.209205E+01	1.276523E-02	3.207467E+01	9.876712E-01	-6.044211E+01
7.411748E-01	9.884687E-01	-5.373286E+01	1.292378E-02	3.137986E+01	1.291860E-02	3.130963E+01	9.873877E-01	-6.130396E+01
7.514550E-01	9.881483E-01	-5.445764E+01	1.309018E-02	3.062172E+01	1.311911E-02	3.057017E+01	9.876375E-01	-6.215750E+01
7.617352E-01	9.875527E-01	-5.518440E+01	1.327516E-02	2.983557E+01	1.328428E-02	2.977431E+01	9.875895E-01	-6.301678E+01
7.720154E-01	9.872538E-01	-5.591196E+01	1.343810E-02	2.905120E+01	1.344751E-02	2.905011E+01	9.870657E-01	-6.387349E+01
7.822956E-01	9.870220E-01	-5.666351E+01	1.362830E-02	2.834736E+01	1.364184E-02	2.819964E+01	9.868068E-01	-6.473799E+01
7.925758E-01	9.868828E-01	-5.741421E+01	1.380788E-02	2.749265E+01	1.382877E-02	2.745577E+01	9.867430E-01	-6.559489E+01
8.028560E-01	9.866936E-01	-5.816997E+01	1.398771E-02	2.678242E+01	1.400177E-02	2.664629E+01	9.868008E-01	-6.644160E+01
8.131362E-01	9.872913E-01	-5.891708E+01	1.417219E-02	2.599940E+01	1.418179E-02	2.586497E+01	9.867894E-01	-6.727700E+01
8.234165E-01	9.868306E-01	-5.967215E+01	1.436357E-02	2.509144E+01	1.439331E-02	2.508370E+01	9.864040E-01	-6.813002E+01
8.336967E-01	9.862188E-01	-6.044829E+01	1.452362E-02	2.431995E+01	1.454148E-02	2.420524E+01	9.865821E-01	-6.897153E+01
8.439769E-01	9.867413E-01	-6.119417E+01	1.471986E-02	2.357164E+01	1.472968E-02	2.351889E+01	9.866035E-01	-6.981390E+01
8.542571E-01	9.863450E-01	-6.195334E+01	1.488331E-02	2.265823E+01	1.490803E-02	2.259311E+01	9.859056E-01	-7.067670E+01
8.645373E-01	9.862353E-01	-6.270800E+01	1.506831E-02	2.183312E+01	1.509656E-02	2.177678E+01	9.856500E-01	-7.154556E+01
8.748175E-01	9.861741E-01	-6.345398E+01	1.524864E-02	2.101496E+01	1.527540E-02	2.091602E+01	9.854728E-01	-7.241696E+01
8.850977E-01	9.858595E-01	-6.419133E+01	1.541788E-02	2.009400E+01	1.543248E-02	1.999719E+01	9.855805E-01	-7.330263E+01
8.953779E-01	9.862304E-01	-6.491939E+01	1.556649E-02	1.940558E+01	1.559557E-02	1.926611E+01	9.854229E-01	-7.416463E+01
9.056581E-01	9.854974E-01	-6.565563E+01	1.572596E-02	1.862778E+01	1.577514E-02	1.853206E+01	9.851272E-01	-7.503174E+01
9.159383E-01	9.846989E-01	-6.641070E+01	1.590336E-02	1.779230E+01	1.594533E-02	1.776446E+01	9.850423E-01	-7.587947E+01
9.262185E-01	9.849848E-01	-6.714886E+01	1.609828E-02	1.706799E+01	1.610474E-02	1.700244E+01	9.850729E-01	-7.671870E+01
9.364987E-01	9.846810E-01	-6.791200E+01	1.625276E-02	1.633310E+01	1.627112E-02	1.620819E+01	9.845373E-01	-7.756960E+01
9.467789E-01	9.846574E-01	-6.867811E+01	1.643683E-02	1.553461E+01	1.646510E-02	1.544190E+01	9.844239E-01	-7.841222E+01
9.570591E-01	9.846918E-01	-6.944617E+01	1.662456E-02	1.474841E+01	1.663310E-02	1.461055E+01	9.844581E-01	-7.927528E+01
9.673393E-01	9.850157E-01	-7.020458E+01	1.683427E-02	1.390636E+01	1.684494E-02	1.378803E+01	9.844783E-01	-8.013317E+01
9.776195E-01	9.853661E-01	-7.094964E+01	1.700822E-02	1.304357E+01	1.703084E-02	1.300231E+01	9.842804E-01	-8.099126E+01
9.878997E-01	9.847417E-01	-7.170868E+01	1.717140E-02	1.218120E+01	1.718836E-02	1.211787E+01	9.844549E-01	-8.186230E+01
9.981799E-01	9.842324E-01	-7.245010E+01	1.735237E-02	1.143631E+01	1.736709E-02	1.136070E+01	9.843050E-01	-8.274238E+01
1.008460E+00	9.842145E-01	-7.317239E+01	1.753449E-02	1.060174E+01	1.755372E-02	1.050047E+01	9.841588E-01	-8.360809E+01
1.018740E+00	9.838020E-01	-7.391429E+01	1.769876E-02	9.811930E+00	1.771598E-02	9.725919E+00	9.836192E-01	-8.448382E+01
1.029021E+00	9.835167E-01	-7.462684E+01	1.788585E-02	9.007151E+00	1.789893E-02	8.916964E+00	9.834866E-01	-8.535216E+01
1.039301E+00	9.832323E-01	-7.535492E+01	1.805649E-02	8.169574E+00	1.807687E-02	8.092786E+00	9.834574E-01	-8.622354E+01
1.049581E+00	9.840590E-01	-7.606189E+01	1.823174E-02	7.311195E+00	1.823333E-02	7.263036E+00	9.834346E-01	-8.709855E+01
1.059861E+00	9.831969E-01	-7.678804E+01	1.836796E-02	6.568371E+00	1.838408E-02	6.497976E+00	9.832541E-01	-8.795987E+01
1.070141E+00	9.827167E-01	-7.754572E+01	1.856554E-02	5.806293E+00	1.858459E-02	5.777837E+00	9.835892E-01	-8.881869E+01
1.080422E+00	9.828736E-01	-7.828550E+01	1.874725E-02	5.010704E+00	1.876148E-02	4.958855E+00	9.832569E-01	-8.967970E+01
1.090702E+00	9.827135E-01	-7.905391E+01	1.891466E-02	4.175974E+00	1.894831E-02	4.147245E+00	9.828175E-01	-9.052467E+01
1.100982E+00	9.826621E-01	-7.981621E+01	1.907384E-02	3.392794E+00	1.911471E-02	3.309998E+00	9.823747E-01	-9.138706E+01
1.111262E+00	9.827789E-01	-8.056181E+01	1.928402E-02	2.602037E+00	1.928765E-02	2.544375E+00	9.822261E-01	-9.224591E+01
1.121542E+00	9.826966E-01	-8.130332E+01	1.945728E-02	1.755391E+00	1.946975E-02	1.703675E+00	9.823268E-01	-9.310953E+01
1.131823E+00	9.831014E-01	-8.203463E+01	1.962841E-02	9.501008E-01	1.962972E-02	9.212825E-01	9.822750E-01	-9.397452E+01
1.142103E+00	9.823745E-01	-8.277770E+01	1.980311E-02	2.127936E-01	1.981818E-02	1.282966E-01	9.818261E-01	-9.485764E+01
1.152383E+00	9.811872E-01	-8.354190E+01	1.998627E-02	-6.278837E-01	1.998087E-02	-7.282158E-01	9.820404E-01	-9.572482E+01
1.162663E+00	9.814477E-01	-8.428855E+01	2.015090E-02	-1.439071E+00	2.015946E-02	-1.472694E+00	9.823057E-01	-9.657228E+01
1.172943E+00	9.809315E-01	-8.506721E+01	2.032808E-02	-2.224241E+00	2.033689E-02	-2.316116E+00	9.814104E-01	-9.743811E+01
1.183224E+00	9.809583E-01	-8.585490E+01	2.052659E-02	-3.040409E+00	2.052620E-02	-3.145217E+00	9.809691E-01	-9.828569E+01
1.193504E+00	9.806396E-01	-8.663216E+01	2.066352E-02	-3.938726E+00	2.068679E-02	-4.004049E+00	9.809696E-01	-9.914209E+01
1.203784E+00	9.814679E-01	-8.742133E+01	2.086702E-02	-4.706611E+00	2.084431E-02	-4.786792E+00	9.812983E-01	-9.999685E+01
1.214064E+00	9.812383E-01	-8.820469E+01	2.104084E-02	-5.564464E+00	2.103952E-02	-5.640448E+00	9.808830E-01	-1.008661E+02
1.224344E+00	9.812266E-01	-8.898990E+01	2.123166E-02	-6.369038E+00	2.123242E-02	-6.464273E+00	9.808006E-01	-1.017446E+02
1.234625E+00	9.802790E-01	-8.978689E+01	2.138421E-02	-7.222909E+00	2.138735E-02	-7.304643E+00	9.804434E-01	-1.026335E+02
1.244905E+00	9.807465E-01	-9.056415E+01	2.155016E-02	-8.055314E+00	2.157621E-02	-8.106834E+00	9.807335E-01	-1.035097E+02
1.255185E+00	9.801514E-01	-9.134650E+01	2.169604E-02	-8.893583E+00	2.173111E-02	-8.907551E+00	9.798752E-01	-1.043962E+02
1.265465E+00	9.799978E-01	-9.208904E+01	2.187782E-02	-9.654465E+00	2.191564E-02	-9.696409E+00	9.796225E-01	-1.052909E+02
1.275746E+00	9.796479E-01	-9.282757E+01	2.203836E-02	-1.048563E+01	2.206689E-02	-1.054132E+01	9.796798E-01	-1.061795E+02
1.286026E+00	9.804659E-01	-9.353792E+01	2.224144E-02	-1.126303E+01	2.223553E-02	-1.136976E+01	9.798231E-01	-1.070643E+02
1.296306E+00	9.796989E-01	-9.428063E+01	2.242889E-02	-1.207442E+01	2.243808E-02	-1.215008E+01	9.793402E-01	-1.079500E+02
1.306586E+00	9.790541E-01	-9.502933E+01	2.261061E-02	-1.298082E+01	2.261194E-02	-1.309276E+01	9.798895E-01	-1.088363E+02
1.316866E+00	9.790374E-01	-9.577666E+01	2.276193E-02	-1.378480E+01	2.276002E-02	-1.390923E+01	9.792095E-01	-1.097077E+02
1.327147E+00	9.789302E-01	-9.654388E+01	2.291824E-02	-1.456976E+01	2.294739E-02	-1.463970E+01	9.793334E-01	-1.105913E+02
1.337427E+00	9.786583E-01	-9.732657E+01	2.307972E-02	-1.539877E+01	2.313506E-02	-1.543603E+01	9.783504E-01	-1.114786E+02
1.347707E+00	9.787777E-01	-9.810019E+01	2.326970E-02	-1.624938E+01	2.328323E-02	-1.636794E+01	9.781817E-01	-1.123710E+02
1.357987E+00	9.788829E-01	-9.885378E+01	2.344385E-02	-1.706305E+01	2.345605E-02	-1.715529E+01	9.783534E-01	-1.132666E+02
1.368267E+00	9.794380E-01	-9.960659E+01	2.363090E-02	-1.791468E+01	2.363426E-02	-1.797955E+01	9.783952E-01	-1.141632E+02
1.378548E+00	9.788894E-01	-1.003533E+02	2.377824E-02	-1.876557E+01	2.376417E-02	-1.886931E+01	9.776387E-01	-1.150532E+02
1.388828E+00	9.778264E-01	-1.010990E+02	2.393054E-02	-1.960411E+01	2.394057E-02	-1.964835E+01	9.781166E-01	-1.159487E+02
1.399108E+00	9.782529E-01	-1.018295E+02	2.410588E-02	-2.038514E+01	2.411180E-02	-2.050853E+01	9.782042E-01	-1.168153E+02
1.409388E+00	9.777043E-01	-1.025888E+02	2.425424E-02	-2.125942E+01	2.428126E-02	-2.129168E+01	9.775863E-01	-1.176937E+02
1.419668E+00	9.774159E-01	-1.033435E+02	2.440465E-02	-2.206996E+01	2.444789E-02	-2.214415E+01	9.768487E-01	-1.185765E+02
1.429949E+00	9.770408E-01	-1.040928E+02	2.458840E-02	-2.289472E+01	2.464393E-02	-2.293869E+01	9.769137E-01	-1.194446E+02
1.440229E+00	9.776518E-01	-1.048501E+02	2.475712E-02	-2.375978E+01	2.479017E-02	-2.378989E+01	9.772046E-01	-1.203435E+02
1.450509E+00	9.775159E-01	-1.056206E+02	2.491501E-02	-2.456696E+01	2.492642E-02	-2.464213E+01	9.769835E-01	-1.212327E+02
1.460789E+00	9.773843E-01	-1.063816E+02	2.507580E-02	-2.536755E+01	2.507836E-02	-2.543380E+01	9.766454E-01	-1.221162E+02
1.471069E+00	9.764650E-01	-1.071634E+02	2.522176E-02	-2.614898E+01	2.524981E-02	-2.627438E+01	9.766215E-01	-1.230122E+02
1.481350E+00	9.771882E-01	-1.079342E+02	2.541152E-02	-2.702962E+01	2.545229E-02	-2.710867E+01	9.769443E-01	-1.238901E+02
1.491630E+00	9.768446E-01	-1.086959E+02	2.553162E-02	-2.792849E+01	2.557609E-02	-2.800278E+01	9.760875E-01	-1.247788E+02
1.501910E+00	9.765264E-01	-1.094420E+02	2.567584E-02	-2.867584E+01	2.571190E-02	-2.871737E+01	9.756071E-01	-1.256564E+02
1.512190E+00	9.764173E-01	-1.101678E+02	2.585228E-02	-2.945573E+01	2.588259E-02	-2.953880E+01	9.756286E-01	-1.265615E+02
1.522470E+00	9.769322E-01	-1.108998E+02	2.606190E-02	-3.030974E+01	2.606647E-02	-3.036156E+01	9.756008E-01	-1.274590E+02
1.532751E+00	9.764975E-01	-1.116029E+02	2.622678E-02	-3.116708E+01	2.623324E-02	-3.128138E+01	9.751006E-01	-1.283595E+02
1.543031E+00	9.757422E-01	-1.123269E+02	2.634075E-02	-3.202533E+01	2.635963E-02	-3.209025E+01	9.756836E-01	-1.292602E+02
1.553311E+00	9.755112E-01	-1.130555E+02	2.650629E-02	-3.281077E+01	2.648347E-02	-3.295100E+01	9.749131E-01	-1.301481E+02
1.563591E+00	9.755905E-01	-1.138075E+02	2.664363E-02	-3.362610E+01	2.667271E-02	-3.365796E+01	9.755285E-01	-1.310287E+02
1.573871E+00	9.753019E-01	-1.145441E+02	2.680074E-02	-3.448281E+01	2.682932E-02	-3.456344E+01	9.743452E-01	-1.319251E+02
1.584152E+00	9.750519E-01	-1.152798E+02	2.689417E-02	-3.517344E+01	2.692729E-02	-3.522780E+01	9.741872E-01	-1.328203E+02
1.594432E+00	9.750765E-01	-1.160377E+02	2.713960E-02	-3.592013E+01	2.714962E-02	-3.600277E+01	9.744851E-01	-1.337293E+02
1.604712E+00	9.756972E-01	-1.167935E+02	2.731708E-02	-3.679833E+01	2.731219E-02	-3.683577E+01	9.744641E-01	-1.346419E+02
1.614992E+00	9.755545E-01	-1.175460E+02	2.748735E-02	-3.757430E+01	2.747520E-02	-3.768666E+01	9.736906E-01	-1.355594E+02
1.625272E+00	9.743573E-01	-1.182960E+02	2.765683E-02	-3.847304E+01	2.769612E-02	-3.856825E+01	9.744465E-01	-1.364911E+02
1.635553E+00	9.747003E-01	-1.190365E+02	2.781062E-02	-3.935230E+01	2.782817E-02	-3.943870E+01	9.739755E-01	-1.373996E+02
1.645833E+00	9.743796E-01	-1.197963E+02	2.790760E-02	-4.012384E+01	2.792796E-02	-4.020261E+01	9.740328E-01	-1.382796E+02
1.656113E+00	9.740407E-01	-1.205356E+02	2.809254E-02	-4.085612E+01	2.812543E-02	-4.093276E+01	9.731582E-01	-1.391760E+02
1.666393E+00	9.733365E-01	-1.212861E+02	2.830052E-02	-4.169033E+01	2.830295E-02	-4.172442E+01	9.732073E-01	-1.400657E+02
1.676674E+00	9.741288E-01	-1.220579E+02	2.849024E-02	-4.251929E+01	2.847079E-02	-4.258310E+01	9.733846E-01	-1.409505E+02
1.686954E+00	9.735795E-01	-1.228391E+02	2.866861E-02	-4.334806E+01	2.866439E-02	-4.343793E+01	9.729969E-01	-1.418507E+02
